time,"I(LQ|X1)","I(LQ|X2)"
0.000000e+00,3.891160e-06,2.226213e-06
2.000000e-13,4.439792e-06,2.538310e-06
4.000000e-13,5.438914e-06,3.105856e-06
6.000000e-13,7.037168e-06,4.013659e-06
8.000000e-13,9.419197e-06,5.368026e-06
1.000000e-12,1.283549e-05,7.316266e-06
1.200000e-12,1.762101e-05,1.006278e-05
1.400000e-12,2.420081e-05,1.388488e-05
1.600000e-12,3.306529e-05,1.914765e-05
1.800000e-12,4.467239e-05,2.631051e-05
2.000000e-12,5.920799e-05,3.590426e-05
2.200000e-12,7.617152e-05,4.843617e-05
2.400000e-12,9.396953e-05,6.416545e-05
2.600000e-12,1.099804e-04,8.272531e-05
2.800000e-12,1.213378e-04,1.027165e-04
3.000000e-12,1.259926e-04,1.216237e-04
3.200000e-12,1.234124e-04,1.363606e-04
3.400000e-12,1.146675e-04,1.442557e-04
3.600000e-12,1.019838e-04,1.439483e-04
3.800000e-12,8.798528e-05,1.357893e-04
4.000000e-12,7.495478e-05,1.216142e-04
4.200000e-12,6.441044e-05,1.040351e-04
4.400000e-12,5.706952e-05,8.561657e-05
4.600000e-12,5.305649e-05,6.830159e-05
4.800000e-12,5.216497e-05,5.322906e-05
5.000000e-12,5.405697e-05,4.085979e-05
5.200000e-12,5.837008e-05,3.123499e-05
5.400000e-12,6.474532e-05,2.422243e-05
5.600000e-12,7.279244e-05,1.968038e-05
5.800000e-12,8.200760e-05,1.753316e-05
6.000000e-12,9.167833e-05,1.778581e-05
6.200000e-12,1.008426e-04,2.050845e-05
6.400000e-12,1.083679e-04,2.580640e-05
6.600000e-12,1.131572e-04,3.377204e-05
6.800000e-12,1.144156e-04,4.440370e-05
7.000000e-12,1.118744e-04,5.748656e-05
7.200000e-12,1.058926e-04,7.245688e-05
7.400000e-12,9.740630e-05,8.828990e-05
7.600000e-12,8.774602e-05,1.034650e-04
7.800000e-12,7.836845e-05,1.161094e-04
8.000000e-12,7.055438e-05,1.243982e-04
8.200000e-12,6.515333e-05,1.270817e-04
8.400000e-12,6.245673e-05,1.238569e-04
8.600000e-12,6.223156e-05,1.153944e-04
8.800000e-12,6.387958e-05,1.030403e-04
9.000000e-12,6.664590e-05,8.837202e-05
9.200000e-12,6.980113e-05,7.280634e-05
9.400000e-12,7.275181e-05,5.738377e-05
9.600000e-12,7.507269e-05,4.274734e-05
9.800000e-12,7.648185e-05,2.925879e-05
1.000000e-11,7.679240e-05,1.715849e-05
1.020000e-11,7.587286e-05,6.678694e-06
1.040000e-11,7.363308e-05,-1.936377e-06
1.060000e-11,7.003154e-05,-8.482683e-06
1.080000e-11,6.508639e-05,-1.285948e-05
1.100000e-11,5.887620e-05,-1.509428e-05
1.120000e-11,5.153020e-05,-1.532386e-05
1.140000e-11,4.322027e-05,-1.375907e-05
1.160000e-11,3.416732e-05,-1.066613e-05
1.180000e-11,2.466356e-05,-6.377978e-06
1.200000e-11,1.509351e-05,-1.318343e-06
1.220000e-11,5.925896e-06,3.998077e-06
1.240000e-11,-2.339687e-06,9.013986e-06
1.260000e-11,-9.257935e-06,1.321164e-05
1.280000e-11,-1.451751e-05,1.618625e-05
1.300000e-11,-1.798255e-05,1.767767e-05
1.320000e-11,-1.968903e-05,1.756152e-05
1.340000e-11,-1.981369e-05,1.582779e-05
1.360000e-11,-1.864003e-05,1.257690e-05
1.380000e-11,-1.653264e-05,8.041373e-06
1.400000e-11,-1.391255e-05,2.609467e-06
1.420000e-11,-1.121760e-05,-3.188483e-06
1.440000e-11,-8.842852e-06,-8.749966e-06
1.460000e-11,-7.075123e-06,-1.350255e-05
1.480000e-11,-6.044321e-06,-1.699074e-05
1.500000e-11,-5.706759e-06,-1.891546e-05
1.520000e-11,-5.861502e-06,-1.913090e-05
1.540000e-11,-6.192198e-06,-1.762866e-05
1.560000e-11,-6.325972e-06,-1.453689e-05
1.580000e-11,-5.902495e-06,-1.013702e-05
1.600000e-11,-4.645894e-06,-4.871294e-06
1.620000e-11,-2.429151e-06,6.913850e-07
1.640000e-11,6.825856e-07,5.937705e-06
1.660000e-11,4.423012e-06,1.031074e-05
1.680000e-11,8.356511e-06,1.338812e-05
1.700000e-11,1.194613e-05,1.491689e-05
1.720000e-11,1.464262e-05,1.481427e-05
1.740000e-11,1.597564e-05,1.315791e-05
1.760000e-11,1.563273e-05,1.018024e-05
1.780000e-11,1.352036e-05,6.259535e-06
1.800000e-11,9.804369e-06,1.888379e-06
1.820000e-11,4.919886e-06,-2.390102e-06
1.840000e-11,-4.685179e-07,-6.064327e-06
1.860000e-11,-5.567727e-06,-8.727484e-06
1.880000e-11,-9.600340e-06,-1.012193e-05
1.900000e-11,-1.194840e-05,-1.015365e-05
1.920000e-11,-1.225585e-05,-8.888565e-06
1.940000e-11,-1.047702e-05,-6.541022e-06
1.960000e-11,-6.882537e-06,-3.453024e-06
1.980000e-11,-2.032347e-06,-5.604301e-08
2.000000e-11,3.294678e-06,3.187457e-06
2.020000e-11,8.223955e-06,5.852143e-06
2.040000e-11,1.196457e-05,7.614128e-06
2.060000e-11,1.396657e-05,8.292860e-06
2.080000e-11,1.401131e-05,7.863650e-06
2.100000e-11,1.221526e-05,6.445802e-06
2.120000e-11,8.972967e-06,4.276661e-06
2.140000e-11,4.875697e-06,1.678296e-06
2.160000e-11,6.204486e-07,-9.827392e-07
2.180000e-11,-3.097322e-06,-3.343062e-06
2.200000e-11,-5.703933e-06,-5.092663e-06
2.220000e-11,-6.851309e-06,-6.017390e-06
2.240000e-11,-6.468751e-06,-6.024444e-06
2.260000e-11,-4.749465e-06,-5.148179e-06
2.280000e-11,-2.087693e-06,-3.539577e-06
2.300000e-11,1.006330e-06,-1.443903e-06
2.320000e-11,3.995333e-06,8.315652e-07
2.340000e-11,6.401551e-06,2.959108e-06
2.360000e-11,7.884002e-06,4.637874e-06
2.380000e-11,8.291447e-06,5.638747e-06
2.400000e-11,7.675357e-06,5.837272e-06
2.420000e-11,6.259337e-06,5.228787e-06
2.440000e-11,4.377185e-06,3.925326e-06
2.460000e-11,2.399473e-06,2.137154e-06
2.480000e-11,6.654482e-07,1.418927e-07
2.500000e-11,-5.703697e-07,-1.756215e-06
2.520000e-11,-1.172149e-06,-3.272703e-06
2.540000e-11,-1.133632e-06,-4.187521e-06
2.560000e-11,-5.641978e-07,-4.379055e-06
2.580000e-11,3.466091e-07,-3.840923e-06
2.600000e-11,1.376814e-06,-2.679619e-06
2.620000e-11,2.319881e-06,-1.095066e-06
2.640000e-11,3.022325e-06,6.520956e-07
2.660000e-11,3.405215e-06,2.282081e-06
2.680000e-11,3.468197e-06,3.540882e-06
2.700000e-11,3.277701e-06,4.241285e-06
2.720000e-11,2.943054e-06,4.292238e-06
2.740000e-11,2.585993e-06,3.710981e-06
2.760000e-11,2.310377e-06,2.616456e-06
2.780000e-11,2.178916e-06,1.206371e-06
2.800000e-11,2.201919e-06,-2.774183e-07
2.820000e-11,2.339910e-06,-1.589610e-06
2.840000e-11,2.518514e-06,-2.522041e-06
2.860000e-11,2.651192e-06,-2.937476e-06
2.880000e-11,2.663929e-06,-2.790531e-06
2.900000e-11,2.515827e-06,-2.131999e-06
2.920000e-11,2.210912e-06,-1.096354e-06
2.940000e-11,1.798668e-06,1.244751e-07
2.980000e-11,1.005716e-06,2.277594e-06
3.000000e-11,8.183692e-07,2.857606e-06
3.020000e-11,8.651086e-07,2.976065e-06
3.040000e-11,1.164015e-06,2.636383e-06
3.060000e-11,1.681083e-06,1.921064e-06
3.080000e-11,2.334899e-06,9.737751e-07
3.100000e-11,3.011503e-06,-2.851829e-08
3.120000e-11,3.586253e-06,-9.079499e-07
3.140000e-11,3.948152e-06,-1.516863e-06
3.160000e-11,4.021854e-06,-1.762346e-06
3.180000e-11,3.783116e-06,-1.620175e-06
3.200000e-11,3.264727e-06,-1.136054e-06
3.220000e-11,2.551591e-06,-4.143184e-07
3.240000e-11,1.765690e-06,4.033802e-07
3.260000e-11,1.043727e-06,1.165149e-06
3.280000e-11,5.118405e-07,1.736516e-06
3.300000e-11,2.624076e-07,2.023718e-06
3.320000e-11,3.373676e-07,1.988670e-06
3.340000e-11,7.210696e-07,1.653341e-06
3.360000e-11,1.343748e-06,1.093175e-06
3.380000e-11,2.094808e-06,4.211262e-07
3.400000e-11,2.843351e-06,-2.344556e-07
3.420000e-11,3.462035e-06,-7.538298e-07
3.440000e-11,3.849695e-06,-1.047293e-06
3.460000e-11,3.948477e-06,-1.070227e-06
3.480000e-11,3.752479e-06,-8.293404e-07
3.500000e-11,3.306728e-06,-3.793639e-07
3.520000e-11,2.697174e-06,1.888114e-07
3.540000e-11,2.033947e-06,7.660925e-07
3.560000e-11,1.431103e-06,1.245779e-06
3.580000e-11,9.865835e-07,1.542939e-06
3.600000e-11,7.659705e-07,1.609071e-06
3.620000e-11,7.927979e-07,1.439555e-06
3.640000e-11,1.046879e-06,1.072875e-06
3.660000e-11,1.470491e-06,5.820790e-07
3.680000e-11,1.980813e-06,6.034541e-08
3.700000e-11,2.485993e-06,-3.965556e-07
3.720000e-11,2.901755e-06,-7.076453e-07
3.740000e-11,3.165561e-06,-8.208359e-07
3.760000e-11,3.245932e-06,-7.213130e-07
3.780000e-11,3.145544e-06,-4.329088e-07
3.800000e-11,2.897956e-06,-1.250430e-08
3.820000e-11,2.559026e-06,4.612522e-07
3.840000e-11,2.195045e-06,9.026778e-07
3.860000e-11,1.870026e-06,1.234498e-06
3.880000e-11,1.634577e-06,1.401242e-06
3.900000e-11,1.518255e-06,1.378285e-06
3.920000e-11,1.526489e-06,1.175117e-06
3.940000e-11,1.642232e-06,8.324613e-07
3.960000e-11,1.831575e-06,4.140403e-07
3.980000e-11,2.051891e-06,-5.372179e-09
4.000000e-11,2.260700e-06,-3.533477e-07
4.020000e-11,2.423500e-06,-5.722682e-07
4.040000e-11,2.519168e-06,-6.287272e-07
4.060000e-11,2.542157e-06,-5.183676e-07
4.080000e-11,2.501405e-06,-2.655102e-07
4.100000e-11,2.416529e-06,8.213420e-08
4.120000e-11,2.312356e-06,4.625377e-07
4.140000e-11,2.213079e-06,8.104831e-07
4.160000e-11,2.137294e-06,1.068747e-06
4.180000e-11,2.094851e-06,1.197433e-06
4.200000e-11,2.086019e-06,1.179948e-06
4.220000e-11,2.102899e-06,1.024781e-06
4.240000e-11,2.132564e-06,7.629835e-07
4.260000e-11,2.161037e-06,4.419895e-07
4.280000e-11,2.177126e-06,1.169913e-07
4.300000e-11,2.175213e-06,-1.585562e-07
4.320000e-11,2.156409e-06,-3.416782e-07
4.340000e-11,2.127898e-06,-4.064531e-07
4.360000e-11,2.100720e-06,-3.474424e-07
4.380000e-11,2.086589e-06,-1.795824e-07
4.400000e-11,2.094575e-06,6.525071e-08
4.420000e-11,2.128423e-06,3.442531e-07
4.440000e-11,2.185187e-06,6.111612e-07
4.460000e-11,2.255485e-06,8.238779e-07
4.480000e-11,2.325336e-06,9.510132e-07
4.500000e-11,2.379171e-06,9.763460e-07
4.520000e-11,2.403335e-06,9.006118e-07
4.540000e-11,2.389326e-06,7.404922e-07
4.560000e-11,2.336026e-06,5.251339e-07
4.580000e-11,2.250424e-06,2.908990e-07
4.600000e-11,2.146639e-06,7.528018e-08
4.620000e-11,2.043390e-06,-8.901552e-08
4.640000e-11,1.960402e-06,-1.788997e-07
4.660000e-11,1.914483e-06,-1.839661e-07
4.680000e-11,1.916054e-06,-1.074191e-07
4.700000e-11,1.966861e-06,3.514428e-08
4.720000e-11,2.059352e-06,2.187797e-07
4.740000e-11,2.177867e-06,4.134918e-07
4.760000e-11,2.301434e-06,5.890557e-07
4.780000e-11,2.407653e-06,7.196058e-07
4.800000e-11,2.476894e-06,7.873176e-07
4.820000e-11,2.496033e-06,7.846846e-07
4.840000e-11,2.460970e-06,7.151349e-07
4.860000e-11,2.377468e-06,5.919905e-07
4.880000e-11,2.260143e-06,4.360151e-07
4.900000e-11,2.129806e-06,2.719878e-07
4.920000e-11,2.009658e-06,1.248522e-07
4.940000e-11,1.921060e-06,1.602090e-08
4.960000e-11,1.879653e-06,-3.963643e-08
4.980000e-11,1.892561e-06,-3.571904e-08
5.000000e-11,1.957162e-06,2.509294e-08
5.020000e-11,2.061657e-06,1.317729e-07
5.040000e-11,2.187286e-06,2.668676e-07
5.060000e-11,2.311776e-06,4.092811e-07
5.080000e-11,2.413362e-06,5.374940e-07
5.100000e-11,2.474651e-06,6.327408e-07
5.120000e-11,2.485628e-06,6.816913e-07
5.140000e-11,2.445282e-06,6.782645e-07
5.160000e-11,2.361595e-06,6.243361e-07
5.180000e-11,2.249927e-06,5.292651e-07
5.200000e-11,2.130149e-06,4.083331e-07
5.220000e-11,2.023040e-06,2.803463e-07
5.240000e-11,1.946646e-06,1.647648e-07
5.260000e-11,1.913216e-06,7.878681e-08
5.280000e-11,1.927258e-06,3.481770e-08
5.300000e-11,1.985011e-06,3.869284e-08
5.320000e-11,2.075372e-06,8.890814e-08
5.340000e-11,2.182061e-06,1.769626e-07
5.360000e-11,2.286602e-06,2.887494e-07
5.380000e-11,2.371559e-06,4.067778e-07
5.400000e-11,2.423455e-06,5.128805e-07
5.420000e-11,2.434891e-06,5.909951e-07
5.440000e-11,2.405532e-06,6.295932e-07
5.460000e-11,2.341848e-06,6.233885e-07
5.480000e-11,2.255713e-06,5.740699e-07
5.500000e-11,2.162166e-06,4.899499e-07
5.520000e-11,2.076755e-06,3.845954e-07
5.540000e-11,2.012939e-06,2.746584e-07
5.560000e-11,1.979979e-06,1.772514e-07
5.580000e-11,1.981653e-06,1.072806e-07
5.600000e-11,2.015955e-06,7.515517e-08
5.620000e-11,2.075756e-06,8.522578e-08
5.640000e-11,2.150277e-06,1.351931e-07
5.660000e-11,2.227044e-06,2.165669e-07
5.680000e-11,2.293993e-06,3.160921e-07
5.700000e-11,2.341355e-06,4.179044e-07
5.720000e-11,2.363034e-06,5.060652e-07
5.740000e-11,2.357296e-06,5.670683e-07
5.760000e-11,2.326713e-06,5.919213e-07
5.780000e-11,2.277440e-06,5.774783e-07
5.800000e-11,2.217995e-06,5.268230e-07
5.820000e-11,2.157784e-06,4.486586e-07
5.840000e-11,2.105615e-06,3.558196e-07
5.860000e-11,2.068456e-06,2.631589e-07
5.880000e-11,2.050570e-06,1.851602e-07
5.900000e-11,2.053143e-06,1.336615e-07
5.920000e-11,2.074400e-06,1.160505e-07
5.940000e-11,2.110126e-06,1.342092e-07
5.960000e-11,2.154476e-06,1.843585e-07
5.980000e-11,2.200924e-06,2.578037e-07
6.000000e-11,2.243191e-06,3.424395e-07
6.020000e-11,2.276040e-06,4.247533e-07
6.040000e-11,2.295835e-06,4.919943e-07
6.060000e-11,2.300846e-06,5.341562e-07
6.080000e-11,2.291278e-06,5.454657e-07
6.100000e-11,2.269086e-06,5.251533e-07
6.120000e-11,2.237603e-06,4.774085e-07
6.140000e-11,2.201070e-06,4.105547e-07
6.160000e-11,2.164110e-06,3.356000e-07
6.180000e-11,2.131207e-06,2.644181e-07
6.200000e-11,2.106237e-06,2.078607e-07
6.220000e-11,2.092073e-06,1.741020e-07
6.240000e-11,2.090292e-06,1.674693e-07
6.260000e-11,2.101019e-06,1.879234e-07
6.280000e-11,2.122898e-06,2.312445e-07
6.300000e-11,2.153229e-06,2.898633e-07
6.320000e-11,2.188243e-06,3.541788e-07
6.340000e-11,2.223520e-06,4.141336e-07
6.360000e-11,2.254504e-06,4.607868e-07
6.380000e-11,2.277071e-06,4.876404e-07
6.400000e-11,2.288078e-06,4.915220e-07
6.420000e-11,2.285822e-06,4.729102e-07
6.440000e-11,2.270332e-06,4.356797e-07
6.460000e-11,2.243450e-06,3.863365e-07
6.480000e-11,2.208650e-06,3.328898e-07
6.500000e-11,2.170622e-06,2.835547e-07
6.520000e-11,2.134650e-06,2.454954e-07
6.540000e-11,2.105876e-06,2.237995e-07
6.560000e-11,2.088540e-06,2.208280e-07
6.580000e-11,2.085330e-06,2.360166e-07
6.600000e-11,2.096934e-06,2.661313e-07
6.620000e-11,2.121882e-06,3.059112e-07
6.640000e-11,2.156707e-06,3.489741e-07
6.660000e-11,2.196422e-06,3.888339e-07
6.680000e-11,2.235243e-06,4.198653e-07
6.700000e-11,2.267446e-06,4.380782e-07
6.720000e-11,2.288239e-06,4.415969e-07
6.740000e-11,2.294501e-06,4.307952e-07
6.760000e-11,2.285272e-06,4.080917e-07
6.780000e-11,2.261916e-06,3.774608e-07
6.800000e-11,2.227923e-06,3.437533e-07
6.820000e-11,2.188382e-06,3.119390e-07
6.840000e-11,2.149202e-06,2.863892e-07
6.860000e-11,2.116213e-06,2.702980e-07
6.880000e-11,2.094269e-06,2.653155e-07
6.900000e-11,2.086523e-06,2.714279e-07
6.920000e-11,2.093954e-06,2.870800e-07
6.940000e-11,2.115244e-06,3.095045e-07
6.960000e-11,2.147016e-06,3.351925e-07
6.980000e-11,2.184370e-06,3.604297e-07
7.000000e-11,2.221662e-06,3.818173e-07
7.020000e-11,2.253370e-06,3.967087e-07
7.040000e-11,2.274928e-06,4.035102e-07
7.060000e-11,2.283394e-06,4.018162e-07
7.080000e-11,2.277852e-06,3.923769e-07
7.100000e-11,2.259492e-06,3.769163e-07
7.120000e-11,2.231375e-06,3.578369e-07
7.140000e-11,2.197909e-06,3.378603e-07
7.160000e-11,2.164154e-06,3.196537e-07
7.180000e-11,2.135041e-06,3.054906e-07
7.200000e-11,2.114649e-06,2.969870e-07
7.220000e-11,2.105628e-06,2.949376e-07
7.240000e-11,2.108868e-06,2.992667e-07
7.260000e-11,2.123442e-06,3.090892e-07
7.280000e-11,2.146814e-06,3.228683e-07
7.300000e-11,2.175284e-06,3.386437e-07
7.320000e-11,2.204579e-06,3.542982e-07
7.340000e-11,2.230496e-06,3.678301e-07
7.360000e-11,2.249507e-06,3.775968e-07
7.380000e-11,2.259230e-06,3.825034e-07
7.400000e-11,2.258711e-06,3.821161e-07
7.420000e-11,2.248486e-06,3.766895e-07
7.440000e-11,2.230426e-06,3.671092e-07
7.460000e-11,2.207402e-06,3.547573e-07
7.480000e-11,2.182829e-06,3.413219e-07
7.500000e-11,2.160164e-06,3.285740e-07
7.520000e-11,2.142421e-06,3.181398e-07
7.540000e-11,2.131788e-06,3.112986e-07
7.560000e-11,2.129374e-06,3.088280e-07
7.580000e-11,2.135117e-06,3.109183e-07
7.600000e-11,2.147861e-06,3.171627e-07
7.620000e-11,2.165573e-06,3.266251e-07
7.640000e-11,2.185659e-06,3.379751e-07
7.660000e-11,2.205343e-06,3.496706e-07
7.680000e-11,2.222034e-06,3.601649e-07
7.700000e-11,2.233659e-06,3.681095e-07
7.720000e-11,2.238904e-06,3.725269e-07
7.740000e-11,2.237343e-06,3.729301e-07
7.760000e-11,2.229454e-06,3.693754e-07
7.780000e-11,2.216509e-06,3.624413e-07
7.800000e-11,2.200384e-06,3.531386e-07
7.820000e-11,2.183293e-06,3.427654e-07
7.840000e-11,2.167492e-06,3.327270e-07
7.860000e-11,2.154995e-06,3.243463e-07
7.880000e-11,2.147327e-06,3.186899e-07
7.900000e-11,2.145345e-06,3.164331e-07
7.920000e-11,2.149151e-06,3.177810e-07
7.940000e-11,2.158097e-06,3.224541e-07
7.960000e-11,2.170886e-06,3.297394e-07
7.980000e-11,2.185751e-06,3.385973e-07
8.000000e-11,2.200693e-06,3.478093e-07
8.020000e-11,2.213737e-06,3.561444e-07
8.040000e-11,2.223197e-06,3.625227e-07
8.060000e-11,2.227882e-06,3.661537e-07
8.080000e-11,2.227254e-06,3.666323e-07
8.100000e-11,2.221488e-06,3.639809e-07
8.120000e-11,2.211443e-06,3.586343e-07
8.140000e-11,2.198540e-06,3.513703e-07
8.160000e-11,2.184568e-06,3.431985e-07
8.180000e-11,2.171439e-06,3.352207e-07
8.200000e-11,2.160927e-06,3.284849e-07
8.220000e-11,2.154428e-06,3.238490e-07
8.240000e-11,2.152770e-06,3.218738e-07
8.260000e-11,2.156105e-06,3.227575e-07
8.280000e-11,2.163892e-06,3.263179e-07
8.300000e-11,2.174981e-06,3.320257e-07
8.320000e-11,2.187781e-06,3.390809e-07
8.340000e-11,2.200481e-06,3.465228e-07
8.360000e-11,2.211315e-06,3.533593e-07
8.380000e-11,2.218807e-06,3.586965e-07
8.400000e-11,2.221972e-06,3.618545e-07
8.420000e-11,2.220456e-06,3.624527e-07
8.440000e-11,2.214568e-06,3.604556e-07
8.460000e-11,2.205233e-06,3.561718e-07
8.480000e-11,2.193839e-06,3.502093e-07
8.500000e-11,2.182041e-06,3.433913e-07
8.520000e-11,2.171511e-06,3.366444e-07
8.540000e-11,2.163700e-06,3.308743e-07
8.560000e-11,2.159641e-06,3.268451e-07
8.580000e-11,2.159802e-06,3.250781e-07
8.600000e-11,2.164044e-06,3.257838e-07
8.620000e-11,2.171646e-06,3.288359e-07
8.640000e-11,2.181437e-06,3.337904e-07
8.660000e-11,2.191965e-06,3.399487e-07
8.680000e-11,2.201722e-06,3.464539e-07
8.700000e-11,2.209359e-06,3.524095e-07
8.720000e-11,2.213870e-06,3.570026e-07
8.740000e-11,2.214730e-06,3.596155e-07
8.760000e-11,2.211948e-06,3.599101e-07
8.780000e-11,2.206048e-06,3.578731e-07
8.800000e-11,2.197975e-06,3.538156e-07
8.820000e-11,2.188944e-06,3.483277e-07
8.840000e-11,2.180255e-06,3.421937e-07
8.860000e-11,2.173109e-06,3.362803e-07
8.880000e-11,2.168441e-06,3.314141e-07
8.900000e-11,2.166798e-06,3.282645e-07
8.920000e-11,2.168282e-06,3.272509e-07
8.940000e-11,2.172553e-06,3.284850e-07
8.960000e-11,2.178900e-06,3.317582e-07
8.980000e-11,2.186355e-06,3.365749e-07
9.000000e-11,2.193840e-06,3.422268e-07
9.020000e-11,2.200325e-06,3.478969e-07
9.040000e-11,2.204964e-06,3.527782e-07
9.060000e-11,2.207206e-06,3.561898e-07
9.080000e-11,2.206854e-06,3.576729e-07
9.100000e-11,2.204076e-06,3.570536e-07
9.120000e-11,2.199360e-06,3.544631e-07
9.140000e-11,2.193437e-06,3.503136e-07
9.160000e-11,2.187165e-06,3.452333e-07
9.180000e-11,2.181405e-06,3.399714e-07
9.200000e-11,2.176912e-06,3.352869e-07
9.220000e-11,2.174230e-06,3.318383e-07
9.240000e-11,2.173636e-06,3.300901e-07
9.260000e-11,2.175115e-06,3.302499e-07
9.280000e-11,2.178376e-06,3.322444e-07
9.300000e-11,2.182904e-06,3.357369e-07
9.320000e-11,2.188040e-06,3.401831e-07
9.340000e-11,2.193075e-06,3.449161e-07
9.360000e-11,2.197345e-06,3.492463e-07
9.380000e-11,2.200315e-06,3.525630e-07
9.400000e-11,2.201648e-06,3.544207e-07
9.420000e-11,2.201233e-06,3.545985e-07
9.440000e-11,2.199197e-06,3.531259e-07
9.460000e-11,2.195873e-06,3.502700e-07
9.480000e-11,2.191751e-06,3.464887e-07
9.500000e-11,2.187407e-06,3.423579e-07
9.520000e-11,2.183423e-06,3.384836e-07
9.540000e-11,2.180314e-06,3.354127e-07
9.560000e-11,2.178461e-06,3.335561e-07
9.580000e-11,2.178064e-06,3.331338e-07
9.600000e-11,2.179125e-06,3.341509e-07
9.620000e-11,2.181454e-06,3.364048e-07
9.640000e-11,2.184699e-06,3.395231e-07
9.660000e-11,2.188398e-06,3.430243e-07
9.680000e-11,2.192040e-06,3.463922e-07
9.700000e-11,2.195143e-06,3.491512e-07
9.720000e-11,2.197306e-06,3.509339e-07
9.740000e-11,2.198269e-06,3.515287e-07
9.760000e-11,2.197940e-06,3.509034e-07
9.780000e-11,2.196403e-06,3.492017e-07
9.800000e-11,2.193903e-06,3.467143e-07
9.820000e-11,2.190807e-06,3.438306e-07
9.840000e-11,2.187553e-06,3.409779e-07
9.860000e-11,2.184587e-06,3.385589e-07
9.880000e-11,2.182304e-06,3.368950e-07
9.900000e-11,2.180994e-06,3.361849e-07
9.920000e-11,2.180805e-06,3.364823e-07
9.940000e-11,2.181727e-06,3.376956e-07
9.960000e-11,2.183600e-06,3.396085e-07
9.980000e-11,2.186135e-06,3.419169e-07
1.000000e-10,2.188964e-06,3.442767e-07
1.002000e-10,2.193368e-06,3.463882e-07
1.004000e-10,2.199613e-06,3.481718e-07
1.006000e-10,2.208470e-06,3.498230e-07
1.008000e-10,2.221079e-06,3.517820e-07
1.010000e-10,2.238537e-06,3.546211e-07
1.012000e-10,2.261560e-06,3.588901e-07
1.014000e-10,2.290282e-06,3.649695e-07
1.016000e-10,2.324129e-06,3.729788e-07
