time,"I(LOUT)","I(LIN|XOUT)","I(LA|XAND)","I(LB|XAND)","I(LC|XAND)"
0.000000e+00,1.281101e-07,1.426679e-07,2.809729e-08,8.647331e-08,2.809729e-08
2.000000e-13,1.406043e-07,1.041448e-07,-6.213404e-09,1.165716e-07,-6.213404e-09
4.000000e-13,1.612908e-07,4.297767e-08,-6.103919e-08,1.650560e-07,-6.103919e-08
6.000000e-13,1.882329e-07,-7.384782e-08,-1.540665e-07,2.342851e-07,-1.540665e-07
8.000000e-13,2.164229e-07,-2.858455e-07,-3.071298e-07,3.284141e-07,-3.071298e-07
1.000000e-12,2.368396e-07,-6.394722e-07,-5.456115e-07,4.517507e-07,-5.456115e-07
1.200000e-12,2.396544e-07,-1.118531e-06,-8.624161e-07,6.063016e-07,-8.624161e-07
1.400000e-12,2.026778e-07,-1.813051e-06,-1.308785e-06,8.045199e-07,-1.308785e-06
1.600000e-12,9.768583e-08,-2.762149e-06,-1.912568e-06,1.062986e-06,-1.912568e-06
1.800000e-12,-1.157413e-07,-4.010576e-06,-2.709137e-06,1.407697e-06,-2.709137e-06
2.000000e-12,-4.942554e-07,-5.613671e-06,-3.744548e-06,1.875426e-06,-3.744548e-06
2.200000e-12,-1.115469e-06,-7.636912e-06,-5.075504e-06,2.514096e-06,-5.075504e-06
2.400000e-12,-2.083106e-06,-1.014705e-05,-6.764727e-06,3.382400e-06,-6.764727e-06
2.600000e-12,-3.531265e-06,-1.318471e-05,-8.866539e-06,4.548367e-06,-8.866539e-06
2.800000e-12,-5.625062e-06,-1.670416e-05,-1.139495e-05,6.085742e-06,-1.139495e-05
3.000000e-12,-8.552950e-06,-2.047068e-05,-1.426856e-05,8.066443e-06,-1.426856e-05
3.200000e-12,-1.250386e-05,-2.393792e-05,-1.724273e-05,1.054754e-05,-1.724273e-05
3.400000e-12,-1.762021e-05,-2.619926e-05,-1.987598e-05,1.355270e-05,-1.987598e-05
3.600000e-12,-2.391562e-05,-2.615479e-05,-2.160157e-05,1.704835e-05,-2.160157e-05
3.800000e-12,-3.115149e-05,-2.293317e-05,-2.192284e-05,2.091251e-05,-2.192284e-05
4.000000e-12,-3.870870e-05,-1.638954e-05,-2.064594e-05,2.490233e-05,-2.064594e-05
4.200000e-12,-4.557262e-05,-7.373740e-06,-1.801325e-05,2.865276e-05,-1.801325e-05
4.400000e-12,-5.054690e-05,2.446259e-06,-1.464840e-05,3.174307e-05,-1.464840e-05
4.600000e-12,-5.263880e-05,1.113988e-05,-1.133798e-05,3.381583e-05,-1.133798e-05
4.800000e-12,-5.140451e-05,1.714608e-05,-8.769290e-06,3.468466e-05,-8.769290e-06
5.000000e-12,-4.707224e-05,1.967482e-05,-7.350174e-06,3.437517e-05,-7.350174e-06
5.200000e-12,-4.039797e-05,1.873831e-05,-7.173337e-06,3.308499e-05,-7.173337e-06
5.400000e-12,-3.235283e-05,1.488766e-05,-8.102094e-06,3.109185e-05,-8.102094e-06
5.600000e-12,-2.381503e-05,8.864031e-06,-9.899064e-06,2.866216e-05,-9.899064e-06
5.800000e-12,-1.539981e-05,1.351404e-06,-1.232447e-05,2.600035e-05,-1.232447e-05
6.000000e-12,-7.456792e-06,-7.100623e-06,-1.517406e-05,2.324749e-05,-1.517406e-05
6.200000e-12,-1.744898e-07,-1.602718e-05,-1.826864e-05,2.051011e-05,-1.826864e-05
6.400000e-12,6.301927e-06,-2.496418e-05,-2.142745e-05,1.789072e-05,-2.142745e-05
6.600000e-12,1.180776e-05,-3.340475e-05,-2.445222e-05,1.549968e-05,-2.445222e-05
6.800000e-12,1.615889e-05,-4.081342e-05,-2.713048e-05,1.344754e-05,-2.713048e-05
7.000000e-12,1.918154e-05,-4.667476e-05,-2.925218e-05,1.182960e-05,-2.925218e-05
7.200000e-12,2.074275e-05,-5.055317e-05,-3.063291e-05,1.071265e-05,-3.063291e-05
7.400000e-12,2.077088e-05,-5.215093e-05,-3.113903e-05,1.012714e-05,-3.113903e-05
7.600000e-12,1.926223e-05,-5.134967e-05,-3.070775e-05,1.006583e-05,-3.070775e-05
7.800000e-12,1.627373e-05,-4.822237e-05,-2.935534e-05,1.048832e-05,-2.935534e-05
8.000000e-12,1.191121e-05,-4.301760e-05,-2.717264e-05,1.132768e-05,-2.717264e-05
8.200000e-12,6.327369e-06,-3.613137e-05,-2.431267e-05,1.249397e-05,-2.431267e-05
8.400000e-12,-2.676867e-07,-2.807795e-05,-2.097550e-05,1.387305e-05,-2.097550e-05
8.600000e-12,-7.596334e-06,-1.945820e-05,-1.739151e-05,1.532482e-05,-1.739151e-05
8.800000e-12,-1.531899e-05,-1.091931e-05,-1.380271e-05,1.668611e-05,-1.380271e-05
9.000000e-12,-2.304639e-05,-3.119422e-06,-1.044789e-05,1.777636e-05,-1.044789e-05
9.200000e-12,-3.033144e-05,3.278399e-06,-7.560551e-06,1.839950e-05,-7.560551e-06
9.400000e-12,-3.665203e-05,7.602425e-06,-5.373003e-06,1.834843e-05,-5.373003e-06
9.600000e-12,-4.145112e-05,9.235712e-06,-4.099497e-06,1.743471e-05,-4.099497e-06
9.800000e-12,-4.426561e-05,7.777236e-06,-3.885291e-06,1.554782e-05,-3.885291e-06
1.000000e-11,-4.487739e-05,3.217034e-06,-4.745823e-06,1.270868e-05,-4.745823e-06
1.020000e-11,-4.339424e-05,-3.988226e-06,-6.532559e-06,9.076893e-06,-6.532559e-06
1.040000e-11,-4.022362e-05,-1.297886e-05,-8.944947e-06,4.911036e-06,-8.944947e-06
1.060000e-11,-3.596387e-05,-2.265298e-05,-1.158560e-05,5.182178e-07,-1.158560e-05
1.080000e-11,-3.126508e-05,-3.185589e-05,-1.404029e-05,-3.775310e-06,-1.404029e-05
1.100000e-11,-2.670961e-05,-3.954936e-05,-1.595691e-05,-7.635543e-06,-1.595691e-05
1.120000e-11,-2.274089e-05,-4.494096e-05,-1.710022e-05,-1.074053e-05,-1.710022e-05
1.140000e-11,-1.964042e-05,-4.756482e-05,-1.737191e-05,-1.282099e-05,-1.737191e-05
1.160000e-11,-1.753523e-05,-4.730438e-05,-1.679911e-05,-1.370616e-05,-1.679911e-05
1.180000e-11,-1.641698e-05,-4.435711e-05,-1.550267e-05,-1.335176e-05,-1.550267e-05
1.200000e-11,-1.616394e-05,-3.915530e-05,-1.365812e-05,-1.183906e-05,-1.365812e-05
1.220000e-11,-1.656481e-05,-3.226628e-05,-1.146010e-05,-9.346080e-06,-1.146010e-05
1.240000e-11,-1.734400e-05,-2.429756e-05,-9.097706e-06,-6.102152e-06,-9.097706e-06
1.260000e-11,-1.818726e-05,-1.583469e-05,-6.742434e-06,-2.349819e-06,-6.742434e-06
1.280000e-11,-1.876785e-05,-7.435591e-06,-4.544436e-06,1.653282e-06,-4.544436e-06
1.300000e-11,-1.877570e-05,3.278242e-07,-2.630292e-06,5.588408e-06,-2.630292e-06
1.320000e-11,-1.794948e-05,6.851889e-06,-1.099285e-06,9.050459e-06,-1.099285e-06
1.340000e-11,-1.610744e-05,1.157818e-05,-1.945954e-08,1.161710e-05,-1.945954e-08
1.360000e-11,-1.317464e-05,1.412914e-05,5.771252e-07,1.297489e-05,5.771252e-07
1.380000e-11,-9.207138e-06,1.440619e-05,7.019111e-07,1.300237e-05,7.019111e-07
1.400000e-11,-4.410609e-06,1.260410e-05,4.185387e-07,1.176702e-05,4.185387e-07
1.420000e-11,8.579129e-07,9.155847e-06,-1.540164e-07,9.463880e-06,-1.540164e-07
1.440000e-11,6.123827e-06,4.644113e-06,-8.530545e-07,6.350222e-06,-8.530545e-07
1.460000e-11,1.087052e-05,-2.833249e-07,-1.501799e-06,2.720273e-06,-1.501799e-06
1.480000e-11,1.463174e-05,-4.969959e-06,-1.947037e-06,-1.075885e-06,-1.947037e-06
1.500000e-11,1.706012e-05,-8.796769e-06,-2.086850e-06,-4.623068e-06,-2.086850e-06
1.520000e-11,1.795098e-05,-1.125127e-05,-1.878299e-06,-7.494669e-06,-1.878299e-06
1.540000e-11,1.723353e-05,-1.200488e-05,-1.330341e-06,-9.344201e-06,-1.330341e-06
1.560000e-11,1.495844e-05,-1.096080e-05,-4.948914e-07,-9.971016e-06,-4.948914e-07
1.580000e-11,1.130588e-05,-8.265155e-06,5.342747e-07,-9.333704e-06,5.342747e-07
1.600000e-11,6.615301e-06,-4.301176e-06,1.615465e-06,-7.532107e-06,1.615465e-06
1.620000e-11,1.399560e-06,3.322471e-07,2.560747e-06,-4.789248e-06,2.560747e-06
1.640000e-11,-3.710002e-06,4.886630e-06,3.164487e-06,-1.442344e-06,3.164487e-06
1.660000e-11,-8.090590e-06,8.589093e-06,3.257007e-06,2.075080e-06,3.257007e-06
1.680000e-11,-1.125920e-05,1.079538e-05,2.754340e-06,5.286696e-06,2.754340e-06
1.700000e-11,-1.293951e-05,1.111381e-05,1.676486e-06,7.760840e-06,1.676486e-06
1.720000e-11,-1.305669e-05,9.457830e-06,1.326110e-07,9.192608e-06,1.326110e-07
1.740000e-11,-1.170236e-05,6.030433e-06,-1.707452e-06,9.445337e-06,-1.707452e-06
1.760000e-11,-9.114383e-06,1.282332e-06,-3.634973e-06,8.552279e-06,-3.634973e-06
1.780000e-11,-5.679587e-06,-4.122276e-06,-5.412466e-06,6.702655e-06,-5.412466e-06
1.800000e-11,-1.919311e-06,-9.350847e-06,-6.787054e-06,4.223261e-06,-6.787054e-06
1.820000e-11,1.586920e-06,-1.351064e-05,-7.524834e-06,1.539028e-06,-7.524834e-06
1.840000e-11,4.325805e-06,-1.582701e-05,-7.462612e-06,-9.017869e-07,-7.462612e-06
1.860000e-11,5.958122e-06,-1.582525e-05,-6.553735e-06,-2.717780e-06,-6.553735e-06
1.880000e-11,6.363029e-06,-1.343817e-05,-4.887858e-06,-3.662458e-06,-4.887858e-06
1.900000e-11,5.625040e-06,-9.012392e-06,-2.680282e-06,-3.651829e-06,-2.680282e-06
1.920000e-11,3.998440e-06,-3.236905e-06,-2.381270e-07,-2.760651e-06,-2.381270e-07
1.940000e-11,1.868209e-06,2.969444e-06,2.086895e-06,-1.204346e-06,2.086895e-06
1.960000e-11,-3.055284e-07,8.596615e-06,3.952663e-06,6.912884e-07,3.952663e-06
1.980000e-11,-2.074704e-06,1.270865e-05,5.082016e-06,2.544621e-06,5.082016e-06
2.000000e-11,-3.103416e-06,1.461650e-05,5.309357e-06,3.997787e-06,5.309357e-06
2.020000e-11,-3.240455e-06,1.400049e-05,4.609039e-06,4.782416e-06,4.609039e-06
2.040000e-11,-2.538324e-06,1.101503e-05,3.102625e-06,4.809775e-06,3.102625e-06
2.060000e-11,-1.224307e-06,6.229879e-06,1.040500e-06,4.148879e-06,1.040500e-06
2.080000e-11,3.588222e-07,5.147770e-07,-1.242431e-06,2.999639e-06,-1.242431e-06
2.100000e-11,1.822980e-06,-5.128351e-06,-3.386113e-06,1.643874e-06,-3.386113e-06
2.120000e-11,2.811334e-06,-9.751319e-06,-5.068639e-06,3.859599e-07,-5.068639e-06
2.140000e-11,3.073875e-06,-1.262653e-05,-6.059231e-06,-5.080691e-07,-6.059231e-06
2.160000e-11,2.523670e-06,-1.336193e-05,-6.249297e-06,-8.633327e-07,-6.249297e-06
2.180000e-11,1.255119e-06,-1.194502e-05,-5.658389e-06,-6.282410e-07,-5.658389e-06
2.200000e-11,-4.802157e-07,-8.718477e-06,-4.420267e-06,1.220573e-07,-4.420267e-06
2.220000e-11,-2.329155e-06,-4.304394e-06,-2.756735e-06,1.209076e-06,-2.756735e-06
2.240000e-11,-3.907722e-06,5.060546e-07,-9.430875e-07,2.392230e-06,-9.430875e-07
2.260000e-11,-4.874596e-06,4.886712e-06,7.344326e-07,3.417847e-06,7.344326e-07
2.280000e-11,-4.997280e-06,8.120168e-06,2.025959e-06,4.068250e-06,2.025959e-06
2.300000e-11,-4.200260e-06,9.725253e-06,2.760463e-06,4.204327e-06,2.760463e-06
2.320000e-11,-2.584493e-06,9.537209e-06,2.871666e-06,3.793876e-06,2.871666e-06
2.340000e-11,-4.121208e-07,7.720440e-06,2.401078e-06,2.918285e-06,2.401078e-06
2.360000e-11,1.941790e-06,4.714766e-06,1.480158e-06,1.754450e-06,1.480158e-06
2.380000e-11,4.060428e-06,1.134256e-06,2.991224e-07,5.360107e-07,2.991224e-07
2.400000e-11,5.563491e-06,-2.354726e-06,-9.293867e-07,-4.959524e-07,-9.293867e-07
2.420000e-11,6.175711e-06,-5.152249e-06,-2.005751e-06,-1.140748e-06,-2.005751e-06
2.440000e-11,5.773531e-06,-6.823287e-06,-2.774151e-06,-1.274985e-06,-2.774151e-06
2.460000e-11,4.405117e-06,-7.164317e-06,-3.145425e-06,-8.734670e-07,-3.145425e-06
2.480000e-11,2.283661e-06,-6.228796e-06,-3.108302e-06,-1.219195e-08,-3.108302e-06
2.500000e-11,-2.457298e-07,-4.304675e-06,-2.725747e-06,1.146819e-06,-2.725747e-06
2.520000e-11,-2.764624e-06,-1.844555e-06,-2.115929e-06,2.387303e-06,-2.115929e-06
2.540000e-11,-4.857453e-06,6.367383e-07,-1.422460e-06,3.481658e-06,-1.422460e-06
2.560000e-11,-6.187527e-06,2.669364e-06,-7.829001e-07,4.235164e-06,-7.829001e-07
2.580000e-11,-6.553144e-06,3.912761e-06,-3.041724e-07,4.521106e-06,-3.041724e-07
2.600000e-11,-5.913776e-06,4.203268e-06,-4.855102e-08,4.300370e-06,-4.855102e-08
2.620000e-11,-4.388658e-06,3.566664e-06,-2.889659e-08,3.624457e-06,-2.889659e-08
2.640000e-11,-2.234679e-06,2.202257e-06,-2.107460e-07,2.623749e-06,-2.107460e-07
2.660000e-11,1.937194e-07,4.406840e-07,-5.211991e-07,1.483082e-06,-5.211991e-07
2.680000e-11,2.502917e-06,-1.324291e-06,-8.657380e-07,4.071850e-07,-8.657380e-07
2.700000e-11,4.330090e-06,-2.720297e-06,-1.150971e-06,-4.183557e-07,-1.150971e-06
2.720000e-11,5.407544e-06,-3.474848e-06,-1.306659e-06,-8.615300e-07,-1.306659e-06
2.740000e-11,5.603466e-06,-3.465047e-06,-1.299838e-06,-8.653702e-07,-1.299838e-06
2.760000e-11,4.932513e-06,-2.729481e-06,-1.138230e-06,-4.530209e-07,-1.138230e-06
2.780000e-11,3.542006e-06,-1.448444e-06,-8.650952e-07,2.817469e-07,-8.650952e-07
2.800000e-11,1.682602e-06,9.643627e-08,-5.490596e-07,1.194555e-06,-5.490596e-07
2.820000e-11,-3.326862e-07,1.576414e-06,-2.705364e-07,2.117487e-06,-2.705364e-07
2.840000e-11,-2.180173e-06,2.679647e-06,-1.051244e-07,2.889896e-06,-1.051244e-07
2.860000e-11,-3.581546e-06,3.175401e-06,-1.062234e-07,3.387848e-06,-1.062234e-07
2.880000e-11,-4.350626e-06,2.961875e-06,-2.917911e-07,3.545457e-06,-2.917911e-07
2.900000e-11,-4.418223e-06,2.083469e-06,-6.397678e-07,3.363005e-06,-6.397678e-07
2.920000e-11,-3.831949e-06,7.150913e-07,-1.093037e-06,2.901166e-06,-1.093037e-06
2.940000e-11,-2.736940e-06,-8.776308e-07,-1.571180e-06,2.264729e-06,-1.571180e-06
2.980000e-11,1.003581e-07,-3.534322e-06,-2.254158e-06,9.739934e-07,-2.254158e-06
3.000000e-11,1.368691e-06,-4.090595e-06,-2.318447e-06,5.462993e-07,-2.318447e-06
3.020000e-11,2.277267e-06,-3.950024e-06,-2.153856e-06,3.576870e-07,-2.153856e-06
3.040000e-11,2.721171e-06,-3.135303e-06,-1.776882e-06,4.184610e-07,-1.776882e-06
3.060000e-11,2.683589e-06,-1.794888e-06,-1.242882e-06,6.908766e-07,-1.242882e-06
3.080000e-11,2.228616e-06,-1.716642e-07,-6.361156e-07,1.100567e-06,-6.361156e-07
3.100000e-11,1.481016e-06,1.444904e-06,-5.462531e-08,1.554155e-06,-5.462531e-08
3.120000e-11,5.990122e-07,2.772015e-06,4.066093e-07,1.958796e-06,4.066093e-07
3.140000e-11,-2.552256e-07,3.582792e-06,6.714389e-07,2.239914e-06,6.714389e-07
3.160000e-11,-9.436120e-07,3.744584e-06,6.951716e-07,2.354241e-06,6.951716e-07
3.180000e-11,-1.374306e-06,3.240487e-06,4.722138e-07,2.296059e-06,4.722138e-07
3.200000e-11,-1.513602e-06,2.169895e-06,3.715005e-08,2.095595e-06,3.715005e-08
3.220000e-11,-1.385351e-06,7.275631e-07,-5.412913e-07,1.810146e-06,-5.412913e-07
3.240000e-11,-1.059267e-06,-8.343136e-07,-1.172289e-06,1.510264e-06,-1.172289e-06
3.260000e-11,-6.320423e-07,-2.252631e-06,-1.758458e-06,1.264286e-06,-1.758458e-06
3.280000e-11,-2.058217e-07,-3.299100e-06,-2.211779e-06,1.124458e-06,-2.211779e-06
3.300000e-11,1.320169e-07,-3.817226e-06,-2.467175e-06,1.117124e-06,-2.467175e-06
3.320000e-11,3.245266e-07,-3.745113e-06,-2.491820e-06,1.238527e-06,-2.491820e-06
3.340000e-11,3.536853e-07,-3.121314e-06,-2.289064e-06,1.456814e-06,-2.289064e-06
3.360000e-11,2.403073e-07,-2.073586e-06,-1.896674e-06,1.719762e-06,-1.896674e-06
3.380000e-11,3.586315e-08,-7.931066e-07,-1.379823e-06,1.966540e-06,-1.379823e-06
3.400000e-11,-1.914225e-07,5.008969e-07,-8.199964e-07,2.140890e-06,-8.199964e-07
3.420000e-11,-3.728070e-07,1.599570e-06,-3.016548e-07,2.202880e-06,-3.016548e-07
3.440000e-11,-4.542176e-07,2.339063e-06,1.011052e-07,2.136853e-06,1.011052e-07
3.460000e-11,-4.076027e-07,2.625405e-06,3.356130e-07,1.954179e-06,3.356130e-07
3.480000e-11,-2.364553e-07,2.445712e-06,3.776054e-07,1.690501e-06,3.776054e-07
3.500000e-11,2.545041e-08,1.864586e-06,2.331959e-07,1.398194e-06,2.331959e-07
3.520000e-11,3.217409e-07,1.007426e-06,-6.410307e-08,1.135632e-06,-6.410307e-08
3.540000e-11,5.857551e-07,3.467246e-08,-4.604095e-07,9.554914e-07,-4.604095e-07
3.560000e-11,7.547258e-07,-8.878469e-07,-8.911430e-07,8.944390e-07,-8.911430e-07
3.580000e-11,7.828760e-07,-1.617185e-06,-1.291682e-06,9.661792e-07,-1.291682e-06
3.600000e-11,6.509645e-07,-2.055506e-06,-1.607287e-06,1.159069e-06,-1.607287e-06
3.620000e-11,3.706447e-07,-2.162820e-06,-1.800704e-06,1.438589e-06,-1.800704e-06
3.640000e-11,-1.708537e-08,-1.958492e-06,-1.856293e-06,1.754094e-06,-1.856293e-06
3.660000e-11,-4.490692e-07,-1.511969e-06,-1.780239e-06,2.048508e-06,-1.780239e-06
3.680000e-11,-8.514780e-07,-9.253897e-07,-1.597242e-06,2.269095e-06,-1.597242e-06
3.700000e-11,-1.153344e-06,-3.122119e-07,-1.344707e-06,2.377201e-06,-1.344707e-06
3.720000e-11,-1.299470e-06,2.236686e-07,-1.065720e-06,2.355108e-06,-1.065720e-06
3.740000e-11,-1.260308e-06,6.046571e-07,-8.020408e-07,2.208739e-06,-8.020408e-07
3.760000e-11,-1.037162e-06,7.897529e-07,-5.880772e-07,1.965907e-06,-5.880772e-07
3.780000e-11,-6.620223e-07,7.774378e-07,-4.466025e-07,1.670643e-06,-4.466025e-07
3.800000e-11,-1.921759e-07,6.013502e-07,-3.867291e-07,1.374808e-06,-3.867291e-07
3.820000e-11,2.994395e-07,3.200139e-07,-4.043101e-07,1.128634e-06,-4.043101e-07
3.840000e-11,7.364907e-07,2.908709e-09,-4.844912e-07,9.718911e-07,-4.844912e-07
3.860000e-11,1.051908e-06,-2.841332e-07,-6.057038e-07,9.272745e-07,-6.057038e-07
3.880000e-11,1.198671e-06,-4.912119e-07,-7.441696e-07,9.971273e-07,-7.441696e-07
3.900000e-11,1.156892e-06,-5.921050e-07,-8.780402e-07,1.163975e-06,-8.780402e-07
3.920000e-11,9.362115e-07,-5.864818e-07,-9.905417e-07,1.394602e-06,-9.905417e-07
3.940000e-11,5.733898e-07,-4.968056e-07,-1.071766e-06,1.646727e-06,-1.071766e-06
3.960000e-11,1.257236e-07,-3.610461e-07,-1.118993e-06,1.876941e-06,-1.118993e-06
3.980000e-11,-3.385379e-07,-2.229140e-07,-1.135648e-06,2.048382e-06,-1.135648e-06
4.000000e-11,-7.511720e-07,-1.216790e-07,-1.129236e-06,2.136792e-06,-1.129236e-06
4.020000e-11,-1.054510e-06,-8.369242e-08,-1.108816e-06,2.133940e-06,-1.108816e-06
4.040000e-11,-1.209760e-06,-1.173462e-07,-1.082636e-06,2.047926e-06,-1.082636e-06
4.060000e-11,-1.201870e-06,-2.123508e-07,-1.056434e-06,1.900517e-06,-1.056434e-06
4.080000e-11,-1.040391e-06,-3.431536e-07,-1.032684e-06,1.722214e-06,-1.032684e-06
4.100000e-11,-7.565475e-07,-4.754165e-07,-1.010781e-06,1.546146e-06,-1.010781e-06
4.120000e-11,-3.972616e-07,-5.739784e-07,-9.879761e-07,1.401974e-06,-9.879761e-07
4.140000e-11,-1.723826e-08,-6.106340e-07,-9.607684e-07,1.310903e-06,-9.607684e-07
4.160000e-11,3.295903e-07,-5.702379e-07,-9.264241e-07,1.282610e-06,-9.264241e-07
4.180000e-11,5.978986e-07,-4.539942e-07,-8.842530e-07,1.314512e-06,-8.842530e-07
4.200000e-11,7.568931e-07,-2.793236e-07,-8.363442e-07,1.393365e-06,-8.363442e-07
4.220000e-11,7.935406e-07,-7.639361e-08,-7.875766e-07,1.498760e-06,-7.875766e-07
4.240000e-11,7.128549e-07,1.178938e-07,-7.448996e-07,1.607693e-06,-7.448996e-07
4.260000e-11,5.355158e-07,2.671436e-07,-7.160495e-07,1.699243e-06,-7.160495e-07
4.280000e-11,2.934704e-07,3.424504e-07,-7.079782e-07,1.758407e-06,-7.079782e-07
4.300000e-11,2.436802e-08,3.278001e-07,-7.253151e-07,1.778430e-06,-7.253151e-07
4.320000e-11,-2.342495e-07,2.229607e-07,-7.691662e-07,1.761293e-06,-7.691662e-07
4.340000e-11,-4.501283e-07,4.343177e-08,-8.364951e-07,1.716422e-06,-8.364951e-07
4.360000e-11,-6.001455e-07,-1.824413e-07,-9.202316e-07,1.658022e-06,-9.202316e-07
4.380000e-11,-6.723847e-07,-4.185832e-07,-1.010121e-06,1.601658e-06,-1.010121e-06
4.400000e-11,-6.663579e-07,-6.275346e-07,-1.094181e-06,1.560827e-06,-1.094181e-06
4.420000e-11,-5.916006e-07,-7.768352e-07,-1.160523e-06,1.544211e-06,-1.160523e-06
4.440000e-11,-4.650880e-07,-8.443070e-07,-1.199211e-06,1.554115e-06,-1.199211e-06
4.460000e-11,-3.080177e-07,-8.213684e-07,-1.203863e-06,1.586357e-06,-1.203863e-06
4.480000e-11,-1.425029e-07,-7.139140e-07,-1.172721e-06,1.631529e-06,-1.172721e-06
4.500000e-11,1.135025e-08,-5.407457e-07,-1.109038e-06,1.677331e-06,-1.109038e-06
4.520000e-11,1.376332e-07,-3.299535e-07,-1.020693e-06,1.711433e-06,-1.020693e-06
4.540000e-11,2.259060e-07,-1.139742e-07,-9.191181e-07,1.724262e-06,-9.191181e-07
4.560000e-11,2.715350e-07,7.575608e-08,-8.176781e-07,1.711112e-06,-8.176781e-07
4.580000e-11,2.752315e-07,2.136228e-07,-7.297718e-07,1.673166e-06,-7.297718e-07
4.600000e-11,2.420254e-07,2.833558e-07,-6.669400e-07,1.617236e-06,-6.669400e-07
4.620000e-11,1.799386e-07,2.797762e-07,-6.372705e-07,1.554317e-06,-6.372705e-07
4.640000e-11,9.860189e-08,2.086453e-07,-6.443247e-07,1.497295e-06,-6.443247e-07
4.660000e-11,8.006287e-09,8.482887e-08,-6.867256e-07,1.458280e-06,-6.867256e-07
4.680000e-11,-8.249320e-08,-7.075505e-08,-7.584448e-07,1.446135e-06,-7.584448e-07
4.700000e-11,-1.648713e-07,-2.347883e-07,-8.497240e-07,1.464660e-06,-8.497240e-07
4.720000e-11,-2.328352e-07,-3.851624e-07,-9.484801e-07,1.511798e-06,-9.484801e-07
4.740000e-11,-2.819912e-07,-5.039783e-07,-1.041977e-06,1.579976e-06,-1.041977e-06
4.760000e-11,-3.098458e-07,-5.795303e-07,-1.118523e-06,1.657516e-06,-1.118523e-06
4.780000e-11,-3.157107e-07,-6.070933e-07,-1.168954e-06,1.730815e-06,-1.168954e-06
4.800000e-11,-3.005577e-07,-5.885636e-07,-1.187724e-06,1.786884e-06,-1.187724e-06
4.820000e-11,-2.668405e-07,-5.312023e-07,-1.173477e-06,1.815752e-06,-1.173477e-06
4.840000e-11,-2.182829e-07,-4.458496e-07,-1.129061e-06,1.812272e-06,-1.129061e-06
4.860000e-11,-1.596155e-07,-3.449949e-07,-1.061006e-06,1.777016e-06,-1.061006e-06
4.880000e-11,-9.624943e-08,-2.410302e-07,-9.785615e-07,1.716093e-06,-9.785615e-07
4.900000e-11,-3.388414e-08,-1.449010e-07,-8.924322e-07,1.639963e-06,-8.924322e-07
