time,"I(LIN|XBFR1)","I(LQ|XBFR1)","I(LIN|XBFR2)","I(LQ|XBFR2)","I(LIN|XBFR3)","I(LQ|XBFR3)","I(LIN|XBFR4)","I(LQ|XBFR4)"
0.000000e+00,-2.547739e-09,1.067716e-06,1.275422e-07,1.222607e-06,2.291205e-07,1.104256e-06,2.795047e-07,7.390571e-07
2.000000e-13,-9.888034e-07,1.038543e-06,8.710865e-08,1.375770e-06,2.558941e-07,1.252322e-06,3.173445e-07,8.384635e-07
4.000000e-13,-1.995202e-06,1.010075e-06,2.276758e-08,1.648855e-06,3.031909e-07,1.519430e-06,3.852925e-07,1.018346e-06
6.000000e-13,-2.995360e-06,9.280812e-07,-9.045226e-08,2.070058e-06,3.743331e-07,1.942325e-06,4.924092e-07,1.304402e-06
8.000000e-13,-3.994023e-06,7.244708e-07,-2.828154e-07,2.668354e-06,4.714889e-07,2.565423e-06,6.496709e-07,1.728296e-06
1.000000e-12,-4.991560e-06,3.280390e-07,-5.875797e-07,3.479539e-06,5.964048e-07,3.448681e-06,8.718000e-07,2.333524e-06
1.200000e-12,-5.005775e-06,-1.625131e-07,-9.837363e-07,4.559491e-06,7.537255e-07,4.674650e-06,1.178964e-06,3.180669e-06
1.400000e-12,-4.999927e-06,-8.811745e-07,-1.533013e-06,5.969723e-06,9.448109e-07,6.354930e-06,1.598170e-06,4.353527e-06
1.600000e-12,-5.000871e-06,-1.817609e-06,-2.253847e-06,7.799836e-06,1.173688e-06,8.640021e-06,2.165554e-06,5.967175e-06
1.800000e-12,-5.004689e-06,-2.943109e-06,-3.165608e-06,1.016870e-05,1.445487e-06,1.172975e-05,2.928569e-06,8.178272e-06
2.000000e-12,-5.012174e-06,-4.210985e-06,-4.290495e-06,1.323183e-05,1.766901e-06,1.588379e-05,3.947912e-06,1.119749e-05
2.200000e-12,-5.024815e-06,-5.543850e-06,-5.650532e-06,1.718749e-05,2.146843e-06,2.142735e-05,5.297643e-06,1.530307e-05
2.400000e-12,-5.044641e-06,-6.811823e-06,-7.259797e-06,2.227690e-05,2.597325e-06,2.874160e-05,7.060277e-06,2.085246e-05
2.600000e-12,-5.074320e-06,-7.796927e-06,-9.108009e-06,2.877032e-05,3.135038e-06,3.821806e-05,9.310708e-06,2.828529e-05
2.800000e-12,-5.117172e-06,-8.137245e-06,-1.112947e-05,3.692586e-05,3.784419e-06,5.014400e-05,1.207947e-05,3.810307e-05
3.000000e-12,-5.176985e-06,-7.245587e-06,-1.315072e-05,4.690193e-05,4.582031e-06,6.448352e-05,1.528712e-05,5.079781e-05
3.200000e-12,-5.257377e-06,-4.213214e-06,-1.481858e-05,5.860946e-05,5.577174e-06,8.057068e-05,1.866126e-05,6.668522e-05
3.400000e-12,-5.360127e-06,2.238297e-06,-1.554194e-05,7.153132e-05,6.816019e-06,9.688367e-05,2.169987e-05,8.560363e-05
3.600000e-12,-5.481265e-06,1.360134e-05,-1.453370e-05,8.462691e-05,8.303193e-06,1.112115e-04,2.378156e-05,1.065263e-04
3.800000e-12,-5.603551e-06,3.101776e-05,-1.105462e-05,9.647564e-05,9.966942e-06,1.213234e-04,2.442794e-05,1.273273e-04
4.000000e-12,-5.688447e-06,5.428026e-05,-4.854731e-06,1.056548e-04,1.166221e-05,1.257740e-04,2.354540e-05,1.450432e-04
4.200000e-12,-5.682762e-06,8.093105e-05,3.421527e-06,1.111513e-04,1.320783e-05,1.243696e-04,2.147396e-05,1.566908e-04
4.400000e-12,-5.551295e-06,1.064412e-04,1.224576e-05,1.126227e-04,1.443498e-05,1.181339e-04,1.884189e-05,1.602483e-04
4.600000e-12,-5.306114e-06,1.256867e-04,1.971803e-05,1.104376e-04,1.523011e-05,1.088916e-04,1.633328e-05,1.553071e-04
4.800000e-12,-5.001325e-06,1.347643e-04,2.424298e-05,1.055131e-04,1.555875e-05,9.868762e-05,1.448086e-05,1.431248e-04
5.000000e-12,-4.708597e-06,1.322320e-04,2.503111e-05,9.902721e-05,1.546338e-05,8.927938e-05,1.356154e-05,1.261097e-04
5.200000e-12,-4.491466e-06,1.193886e-04,2.226361e-05,9.212422e-05,1.503829e-05,8.186160e-05,1.361027e-05,1.070223e-04
5.400000e-12,-4.383302e-06,9.954593e-05,1.688542e-05,8.569709e-05,1.439230e-05,7.703401e-05,1.450455e-05,8.827561e-05
5.600000e-12,-4.379275e-06,7.668735e-05,1.015798e-05,8.028686e-05,1.361484e-05,7.491564e-05,1.605317e-05,7.157243e-05
5.800000e-12,-4.448463e-06,5.424256e-05,3.228334e-06,7.609422e-05,1.275905e-05,7.529637e-05,1.805056e-05,5.788961e-05
6.000000e-12,-4.554628e-06,3.448574e-05,-3.100052e-06,7.306926e-05,1.184604e-05,7.776187e-05,2.029394e-05,4.766780e-05
6.200000e-12,-4.670853e-06,1.856362e-05,-8.382327e-06,7.103102e-05,1.088374e-05,8.177292e-05,2.257868e-05,4.104598e-05
6.400000e-12,-4.783412e-06,6.855088e-06,-1.242850e-05,6.977436e-05,9.889523e-06,8.670545e-05,2.468749e-05,3.804170e-05
6.600000e-12,-4.888600e-06,-6.361562e-07,-1.518066e-05,6.913971e-05,8.906962e-06,9.186982e-05,2.638382e-05,3.864797e-05
6.800000e-12,-4.987892e-06,-4.006641e-06,-1.662387e-05,6.904065e-05,8.010447e-06,9.653732e-05,2.741790e-05,4.285612e-05
7.000000e-12,-5.084424e-06,-3.313412e-06,-1.673956e-05,6.945734e-05,7.295853e-06,1.000027e-04,2.755352e-05,5.061718e-05
7.200000e-12,-5.181024e-06,1.463850e-06,-1.549281e-05,7.041117e-05,6.860493e-06,1.016960e-04,2.661992e-05,6.174375e-05
7.400000e-12,-5.278551e-06,1.037764e-05,-1.284831e-05,7.193628e-05,6.780207e-06,1.013250e-04,2.458185e-05,7.575664e-05
7.600000e-12,-5.373569e-06,2.337315e-05,-8.818755e-06,7.405807e-05,7.092210e-06,9.900085e-05,2.160608e-05,9.171324e-05
7.800000e-12,-5.455647e-06,4.004401e-05,-3.547359e-06,7.677811e-05,7.788255e-06,9.528202e-05,1.809037e-05,1.081073e-04
8.000000e-12,-5.506330e-06,5.933143e-05,2.593745e-06,8.005681e-05,8.816531e-06,9.108923e-05,1.462155e-05,1.229605e-04
8.200000e-12,-5.502888e-06,7.931977e-05,8.941988e-06,8.378673e-05,1.008734e-05,8.748395e-05,1.185094e-05,1.341772e-04
8.400000e-12,-5.428484e-06,9.735825e-05,1.459649e-05,8.776226e-05,1.147962e-05,8.537313e-05,1.031993e-05,1.400774e-04
8.600000e-12,-5.284589e-06,1.106401e-04,1.862460e-05,9.166398e-05,1.284993e-05,8.525176e-05,1.030648e-05,1.398729e-04
8.800000e-12,-5.095148e-06,1.170372e-04,2.034994e-05,9.507479e-05,1.404615e-05,8.708231e-05,1.175762e-05,1.338574e-04
9.000000e-12,-4.898269e-06,1.157646e-04,1.957390e-05,9.753250e-05,1.492638e-05,9.034390e-05,1.432873e-05,1.232426e-04
9.200000e-12,-4.732049e-06,1.075700e-04,1.662713e-05,9.861173e-05,1.538080e-05,9.421174e-05,1.750131e-05,1.097482e-04
9.400000e-12,-4.622230e-06,9.440970e-05,1.224131e-05,9.801479e-05,1.535203e-05,9.778535e-05,2.072404e-05,9.514306e-05
9.600000e-12,-4.576248e-06,7.879272e-05,7.308726e-06,9.564289e-05,1.484723e-05,1.002867e-04,2.352689e-05,8.090910e-05
9.800000e-12,-4.585184e-06,6.308648e-05,2.635854e-06,9.162276e-05,1.393684e-05,1.011819e-04,2.558315e-05,6.809410e-05
1.000000e-11,-4.631220e-06,4.904261e-05,-1.218016e-06,8.627881e-05,1.273908e-05,1.002197e-04,2.672122e-05,5.732167e-05
1.020000e-11,-4.695788e-06,3.764221e-05,-3.983975e-06,8.006068e-05,1.139446e-05,9.740510e-05,2.690325e-05,4.888197e-05
1.040000e-11,-4.764727e-06,2.919853e-05,-5.633666e-06,7.345156e-05,1.003821e-05,9.293739e-05,2.618983e-05,4.283418e-05
1.060000e-11,-4.829713e-06,2.358072e-05,-6.288436e-06,6.688676e-05,8.778728e-06,8.713911e-05,2.470478e-05,3.908485e-05
1.080000e-11,-4.887201e-06,2.043707e-05,-6.132969e-06,6.070344e-05,7.686924e-06,8.039307e-05,2.260695e-05,3.743584e-05
1.100000e-11,-4.936525e-06,1.935325e-05,-5.356971e-06,5.512648e-05,6.796673e-06,7.309683e-05,2.007104e-05,3.760988e-05
1.120000e-11,-4.978208e-06,1.993385e-05,-4.127957e-06,5.028249e-05,6.112877e-06,6.563519e-05,1.727633e-05,3.926412e-05
1.140000e-11,-5.012868e-06,2.182449e-05,-2.587001e-06,4.622695e-05,5.622319e-06,5.836659e-05,1.440054e-05,4.200036e-05
1.160000e-11,-5.040694e-06,2.470032e-05,-8.565463e-07,4.297187e-05,5.303389e-06,5.161670e-05,1.161575e-05,4.537920e-05
1.180000e-11,-5.061379e-06,2.824379e-05,9.489575e-07,4.050590e-05,5.132711e-06,4.567304e-05,9.083295e-06,4.894367e-05
1.200000e-11,-5.074415e-06,3.212984e-05,2.716220e-06,3.880557e-05,5.088599e-06,4.077671e-05,6.946387e-06,5.225243e-05
1.220000e-11,-5.079594e-06,3.602960e-05,4.333757e-06,3.783935e-05,5.152339e-06,3.711132e-05,5.321342e-06,5.491622e-05
1.240000e-11,-5.077452e-06,3.963368e-05,5.699996e-06,3.756782e-05,5.308475e-06,3.479146e-05,4.289538e-06,5.662765e-05
1.260000e-11,-5.069344e-06,4.268452e-05,6.734777e-06,3.794222e-05,5.544872e-06,3.385362e-05,3.892135e-06,5.717704e-05
1.280000e-11,-5.057078e-06,4.500079e-05,7.388271e-06,3.890254e-05,5.852674e-06,3.425125e-05,4.128158e-06,5.645392e-05
1.300000e-11,-5.042321e-06,4.648215e-05,7.643120e-06,4.037499e-05,6.225874e-06,3.585406e-05,4.955225e-06,5.444002e-05
1.320000e-11,-5.026158e-06,4.709487e-05,7.509932e-06,4.226856e-05,6.660064e-06,3.845127e-05,6.291824e-06,5.120083e-05
1.340000e-11,-5.009041e-06,4.684920e-05,7.019861e-06,4.447066e-05,7.150132e-06,4.175898e-05,8.020569e-06,4.688019e-05
1.360000e-11,-4.991079e-06,4.578208e-05,6.218758e-06,4.684247e-05,7.687086e-06,4.543238e-05,9.992885e-06,4.169689e-05
1.380000e-11,-4.972442e-06,4.395232e-05,5.165148e-06,4.921590e-05,8.254690e-06,4.908417e-05,1.203621e-05,3.593826e-05
1.400000e-11,-4.953616e-06,4.144585e-05,3.930971e-06,5.139435e-05,8.826948e-06,5.230906e-05,1.396456e-05,2.994482e-05
1.420000e-11,-4.935351e-06,3.838124e-05,2.601632e-06,5.315888e-05,9.367353e-06,5.471289e-05,1.559212e-05,2.408356e-05
1.440000e-11,-4.918355e-06,3.490571e-05,1.272033e-06,5.427989e-05,9.830279e-06,5.594270e-05,1.674858e-05,1.871221e-05
1.460000e-11,-4.902953e-06,3.117770e-05,3.774468e-08,5.453208e-05,1.016407e-05,5.571433e-05,1.729384e-05,1.414038e-05
1.480000e-11,-4.888929e-06,2.734156e-05,-1.016357e-06,5.370943e-05,1.031469e-05,5.383434e-05,1.713050e-05,1.059390e-05
1.500000e-11,-4.875659e-06,2.350471e-05,-1.825919e-06,5.163674e-05,1.022882e-05,5.021560e-05,1.621289e-05,8.187635e-06
1.520000e-11,-4.862451e-06,1.972673e-05,-2.352162e-06,4.817705e-05,9.855733e-06,4.488713e-05,1.455261e-05,6.909805e-06
1.540000e-11,-4.848921e-06,1.602285e-05,-2.581794e-06,4.323800e-05,9.148769e-06,3.799946e-05,1.222065e-05,6.619901e-06
1.560000e-11,-4.835220e-06,1.237667e-05,-2.524681e-06,3.678433e-05,8.068988e-06,2.982549e-05,9.345980e-06,7.061429e-06
1.580000e-11,-4.822058e-06,8.752387e-06,-2.213592e-06,2.886500e-05,6.594133e-06,2.075376e-05,6.109445e-06,7.889403e-06
1.600000e-11,-4.810556e-06,5.100025e-06,-1.708132e-06,1.965576e-05,4.734281e-06,1.126835e-05,2.731369e-06,8.710582e-06
1.620000e-11,-4.802050e-06,1.356256e-06,-1.099296e-06,9.500936e-06,2.549446e-06,1.910174e-06,-5.483938e-07,9.132083e-06
1.640000e-11,-4.797924e-06,-2.547987e-06,-5.059457e-07,-1.079323e-06,1.577233e-07,-6.779370e-06,-3.496815e-06,8.812307e-06
1.660000e-11,-4.799467e-06,-6.664010e-06,-5.663007e-08,-1.144326e-05,-2.276534e-06,-1.432212e-05,-5.916046e-06,7.507948e-06
1.680000e-11,-4.807741e-06,-1.099128e-05,1.390486e-07,-2.093168e-05,-4.572573e-06,-2.035775e-05,-7.667362e-06,5.111697e-06
1.700000e-11,-4.823464e-06,-1.545108e-05,1.548424e-08,-2.897210e-05,-6.565801e-06,-2.467500e-05,-8.685171e-06,1.676122e-06
1.720000e-11,-4.846919e-06,-1.988324e-05,-4.396166e-07,-3.513587e-05,-8.127255e-06,-2.721478e-05,-8.978868e-06,-2.580684e-06
1.740000e-11,-4.877955e-06,-2.406530e-05,-1.192311e-06,-3.913964e-05,-9.166112e-06,-2.805066e-05,-8.623827e-06,-7.291767e-06
1.760000e-11,-4.916066e-06,-2.774005e-05,-2.176594e-06,-4.081883e-05,-9.623224e-06,-2.735680e-05,-7.744855e-06,-1.198171e-05
1.780000e-11,-4.960473e-06,-3.063685e-05,-3.305117e-06,-4.010928e-05,-9.466971e-06,-2.537289e-05,-6.495967e-06,-1.612645e-05
1.800000e-11,-5.010114e-06,-3.248205e-05,-4.471851e-06,-3.705698e-05,-8.697965e-06,-2.237205e-05,-5.039928e-06,-1.922214e-05
1.820000e-11,-5.063457e-06,-3.300561e-05,-5.549780e-06,-3.185197e-05,-7.361438e-06,-1.863423e-05,-3.530207e-06,-2.085030e-05
1.840000e-11,-5.118191e-06,-3.195778e-05,-6.391814e-06,-2.486343e-05,-5.559763e-06,-1.442585e-05,-2.096775e-06,-2.073064e-05
1.860000e-11,-5.170870e-06,-2.914884e-05,-6.843420e-06,-1.664744e-05,-3.455330e-06,-9.985829e-06,-8.361388e-07,-1.875878e-05
1.880000e-11,-5.216734e-06,-2.451439e-05,-6.770697e-06,-7.907680e-06,-1.256957e-06,-5.518198e-06,1.944344e-07,-1.503000e-05
1.900000e-11,-5.250000e-06,-1.819117e-05,-6.098569e-06,5.900812e-07,8.098213e-07,-1.191329e-06,9.782241e-07,-9.846885e-06
1.920000e-11,-5.264890e-06,-1.056960e-05,-4.844351e-06,8.126911e-06,2.540327e-06,2.856335e-06,1.534926e-06,-3.703497e-06
1.940000e-11,-5.257289e-06,-2.285059e-06,-3.129020e-06,1.412914e-05,3.783931e-06,6.505339e-06,1.910305e-06,2.762857e-06
1.960000e-11,-5.226235e-06,5.865078e-06,-1.157933e-06,1.822915e-05,4.463113e-06,9.641967e-06,2.160688e-06,8.851872e-06
1.980000e-11,-5.174291e-06,1.305012e-05,8.202958e-07,2.028053e-05,4.575689e-06,1.214731e-05,2.336021e-06,1.389695e-05
2.000000e-11,-5.106580e-06,1.852868e-05,2.557643e-06,2.033792e-05,4.184219e-06,1.389340e-05,2.466352e-06,1.735447e-05
2.020000e-11,-5.029244e-06,2.172938e-05,3.838116e-06,1.862015e-05,3.399792e-06,1.474866e-05,2.554645e-06,1.886748e-05
2.040000e-11,-4.950018e-06,2.231589e-05,4.502397e-06,1.548291e-05,2.364820e-06,1.461043e-05,2.581785e-06,1.831921e-05
2.060000e-11,-4.876139e-06,2.021382e-05,4.461707e-06,1.137282e-05,1.234119e-06,1.342808e-05,2.512564e-06,1.584067e-05
2.080000e-11,-4.814434e-06,1.562196e-05,3.710455e-06,6.764410e-06,1.522756e-07,1.121871e-05,2.305280e-06,1.178095e-05
2.100000e-11,-4.771086e-06,9.012879e-06,2.335899e-06,2.096831e-06,-7.671034e-07,8.077488e-06,1.922778e-06,6.652855e-06
2.120000e-11,-4.750998e-06,1.106671e-06,5.165429e-07,-2.273716e-06,-1.455840e-06,4.186301e-06,1.344675e-06,1.065223e-06
2.140000e-11,-4.756515e-06,-7.207379e-06,-1.500570e-06,-6.096867e-06,-1.896148e-06,-1.821252e-07,5.789166e-07,-4.351455e-06
2.160000e-11,-4.786281e-06,-1.500317e-05,-3.443873e-06,-9.226847e-06,-2.115118e-06,-4.675014e-06,-3.316043e-07,-9.020856e-06
2.180000e-11,-4.835380e-06,-2.146515e-05,-5.067952e-06,-1.160393e-05,-2.170414e-06,-8.892733e-06,-1.311231e-06,-1.248858e-05
2.200000e-11,-4.896926e-06,-2.599534e-05,-6.191059e-06,-1.322706e-05,-2.131477e-06,-1.243903e-05,-2.262404e-06,-1.446936e-05
2.220000e-11,-4.964010e-06,-2.825167e-05,-6.709654e-06,-1.412493e-05,-2.061461e-06,-1.497200e-05,-3.080697e-06,-1.486553e-05
2.240000e-11,-5.030805e-06,-2.813305e-05,-6.595097e-06,-1.433130e-05,-2.003854e-06,-1.624118e-05,-3.668838e-06,-1.375784e-05
2.260000e-11,-5.092462e-06,-2.574929e-05,-5.885087e-06,-1.386843e-05,-1.975179e-06,-1.610810e-05,-3.947607e-06,-1.137749e-05
2.280000e-11,-5.144394e-06,-2.140407e-05,-4.678574e-06,-1.274211e-05,-1.963450e-06,-1.455766e-05,-3.864949e-06,-8.068056e-06
2.300000e-11,-5.181935e-06,-1.558872e-05,-3.132644e-06,-1.095028e-05,-1.931922e-06,-1.170706e-05,-3.405048e-06,-4.241487e-06
2.320000e-11,-5.201011e-06,-8.957771e-06,-1.451712e-06,-8.504291e-06,-1.828241e-06,-7.809054e-06,-2.596081e-06,-3.295440e-07
2.340000e-11,-5.199524e-06,-2.259354e-06,1.390172e-07,-5.457449e-06,-1.598639e-06,-3.237865e-06,-1.512183e-06,3.266338e-06
2.360000e-11,-5.178378e-06,3.774917e-06,1.432510e-06,-1.931176e-06,-1.204701e-06,1.550826e-06,-2.657092e-07,6.219237e-06
2.380000e-11,-5.141283e-06,8.542654e-06,2.277173e-06,1.871759e-06,-6.378900e-07,6.080007e-06,1.009417e-06,8.306567e-06
2.400000e-11,-5.093544e-06,1.164504e-05,2.598374e-06,5.673091e-06,7.303433e-08,9.913885e-06,2.177716e-06,9.421283e-06
2.420000e-11,-5.040726e-06,1.290840e-05,2.400215e-06,9.143025e-06,8.637335e-07,1.270562e-05,3.119330e-06,9.566429e-06
2.440000e-11,-4.987929e-06,1.236774e-05,1.753736e-06,1.193574e-05,1.643458e-06,1.422425e-05,3.741552e-06,8.838622e-06
2.460000e-11,-4.939681e-06,1.023555e-05,7.803498e-07,1.372917e-05,2.308197e-06,1.436593e-05,3.985746e-06,7.405636e-06
2.480000e-11,-4.899982e-06,6.868029e-06,-3.651945e-07,1.426468e-05,2.755125e-06,1.315691e-05,3.831846e-06,5.480919e-06
2.500000e-11,-4.872069e-06,2.724431e-06,-1.513635e-06,1.338521e-05,2.897466e-06,1.075025e-05,3.300912e-06,3.296537e-06
2.520000e-11,-4.857889e-06,-1.689049e-06,-2.504337e-06,1.106982e-05,2.679604e-06,7.411999e-06,2.453987e-06,1.076744e-06
2.540000e-11,-4.857669e-06,-5.888821e-06,-3.211044e-06,7.458814e-06,2.090870e-06,3.492442e-06,1.385241e-06,-9.844386e-07
2.560000e-11,-4.869950e-06,-9.480396e-06,-3.563256e-06,2.859164e-06,1.174117e-06,-6.158626e-07,2.095982e-07,-2.738414e-06
2.580000e-11,-4.892101e-06,-1.220134e-05,-3.555283e-06,-2.278998e-06,2.454301e-08,-4.524629e-06,-9.523966e-07,-4.088568e-06
2.600000e-11,-4.921007e-06,-1.393067e-05,-3.239824e-06,-7.416295e-06,-1.223121e-06,-7.890615e-06,-1.988777e-06,-4.989136e-06
2.620000e-11,-4.953582e-06,-1.467050e-05,-2.709923e-06,-1.199728e-05,-2.416029e-06,-1.044434e-05,-2.806938e-06,-5.438652e-06
2.640000e-11,-4.987000e-06,-1.451486e-05,-2.077094e-06,-1.552423e-05,-3.406781e-06,-1.200623e-05,-3.340497e-06,-5.470371e-06
2.660000e-11,-5.018760e-06,-1.361857e-05,-1.452150e-06,-1.761553e-05,-4.073142e-06,-1.249290e-05,-3.552944e-06,-5.141447e-06
2.680000e-11,-5.046727e-06,-1.217073e-05,-9.309566e-07,-1.804314e-05,-4.331585e-06,-1.191626e-05,-3.438803e-06,-4.522176e-06
2.700000e-11,-5.069229e-06,-1.037093e-05,-5.838408e-07,-1.675298e-05,-4.145758e-06,-1.037642e-05,-3.022468e-06,-3.686478e-06
2.720000e-11,-5.085149e-06,-8.406080e-06,-4.471507e-07,-1.387356e-05,-3.531695e-06,-8.048421e-06,-2.354619e-06,-2.704747e-06
2.740000e-11,-5.093954e-06,-6.430055e-06,-5.177995e-07,-9.712041e-06,-2.559295e-06,-5.163473e-06,-1.506319e-06,-1.639802e-06
2.760000e-11,-5.095627e-06,-4.551973e-06,-7.538329e-07,-4.729543e-06,-1.347065e-06,-1.986717e-06,-5.614644e-07,-5.459928e-07
2.780000e-11,-5.090567e-06,-2.837567e-06,-1.083524e-06,5.114130e-07,-4.726160e-08,1.206240e-06,3.914956e-07,5.292845e-07
2.800000e-11,-5.079488e-06,-1.322471e-06,-1.421901e-06,5.423508e-06,1.177421e-06,4.151715e-06,1.267641e-06,1.542866e-06
2.820000e-11,-5.063364e-06,-3.032454e-08,-1.689686e-06,9.477345e-06,2.179656e-06,6.617663e-06,1.992734e-06,2.453156e-06
2.840000e-11,-5.043377e-06,1.012503e-06,-1.828663e-06,1.226851e-05,2.848397e-06,8.419572e-06,2.508917e-06,3.218469e-06
2.860000e-11,-5.020861e-06,1.769972e-06,-1.810151e-06,1.355639e-05,3.120632e-06,9.431828e-06,2.778643e-06,3.796909e-06
2.880000e-11,-4.997245e-06,2.196705e-06,-1.636937e-06,1.327610e-05,2.984472e-06,9.594358e-06,2.786741e-06,4.148014e-06
2.900000e-11,-4.974012e-06,2.242966e-06,-1.340869e-06,1.153241e-05,2.476575e-06,8.914896e-06,2.540733e-06,4.236141e-06
2.920000e-11,-4.952676e-06,1.862728e-06,-9.775631e-07,8.582138e-06,1.676073e-06,7.467385e-06,2.069622e-06,4.035332e-06
2.940000e-11,-4.934750e-06,1.025062e-06,-6.180568e-07,4.804145e-06,6.947258e-07,5.386760e-06,1.421317e-06,3.535041e-06
2.980000e-11,-4.914634e-06,-1.982858e-06,-1.976017e-07,-3.399763e-06,-1.293312e-06,1.105672e-07,-1.458797e-07,1.702993e-06
3.000000e-11,-4.914436e-06,-4.012193e-06,-2.398575e-07,-6.932209e-06,-2.063540e-06,-2.617048e-06,-9.169816e-07,4.692557e-07
3.020000e-11,-4.921298e-06,-6.208391e-06,-4.710392e-07,-9.619807e-06,-2.575283e-06,-5.082486e-06,-1.583663e-06,-8.681089e-07
3.040000e-11,-4.934814e-06,-8.379743e-06,-8.654930e-07,-1.126531e-05,-2.796284e-06,-7.070499e-06,-2.086393e-06,-2.202067e-06
3.060000e-11,-4.953986e-06,-1.031464e-05,-1.369840e-06,-1.180364e-05,-2.733835e-06,-8.411401e-06,-2.382838e-06,-3.414526e-06
3.080000e-11,-4.977314e-06,-1.180601e-05,-1.912053e-06,-1.129067e-05,-2.428209e-06,-8.996394e-06,-2.451629e-06,-4.387443e-06
3.100000e-11,-5.002912e-06,-1.267544e-05,-2.412038e-06,-9.882681e-06,-1.943660e-06,-8.786952e-06,-2.293876e-06,-5.015374e-06
3.120000e-11,-5.028621e-06,-1.279553e-05,-2.792715e-06,-7.809970e-06,-1.358284e-06,-7.818042e-06,-1.932557e-06,-5.218126e-06
3.140000e-11,-5.052136e-06,-1.210949e-05,-2.991228e-06,-5.345297e-06,-7.530553e-07,-6.195130e-06,-1.409959e-06,-4.951938e-06
3.160000e-11,-5.071190e-06,-1.064583e-05,-2.969349e-06,-2.768751e-06,-2.006945e-07,-4.084687e-06,-7.833053e-07,-4.217580e-06
3.180000e-11,-5.083801e-06,-8.524233e-06,-2.721051e-06,-3.337931e-07,2.439038e-07,-1.698091e-06,-1.187129e-07,-3.064015e-06
3.200000e-11,-5.088546e-06,-5.948510e-06,-2.274945e-06,1.759120e-06,5.495646e-07,7.302270e-07,5.161036e-07,-1.586712e-06
3.220000e-11,-5.084805e-06,-3.185453e-06,-1.690363e-06,3.376671e-06,7.097739e-07,2.967962e-06,1.059507e-06,7.965826e-08
3.240000e-11,-5.072881e-06,-5.323422e-07,-1.047776e-06,4.454053e-06,7.390238e-07,4.809796e-06,1.462795e-06,1.773717e-06
3.260000e-11,-5.053981e-06,1.720848e-06,-4.358803e-07,4.986579e-06,6.661867e-07,6.098188e-06,1.695107e-06,3.323905e-06
3.280000e-11,-5.030050e-06,3.327735e-06,6.188864e-08,5.015802e-06,5.268542e-07,6.737429e-06,1.745710e-06,4.567219e-06
3.300000e-11,-5.003533e-06,4.115093e-06,3.791703e-07,4.613734e-06,3.561266e-07,6.699956e-06,1.623626e-06,5.367880e-06
