time,"I(RINA)","I(RINB)","I(RINC)","I(LQ|XBS)","I(LQ|XBC)"
0.000000e+00,-0.000000e+00,-0.000000e+00,-0.000000e+00,2.100059e-06,2.594429e-07
2.000000e-13,-0.000000e+00,-0.000000e+00,-0.000000e+00,2.395097e-06,2.934773e-07
4.000000e-13,-0.000000e+00,-0.000000e+00,-0.000000e+00,2.931556e-06,3.550428e-07
6.000000e-13,-0.000000e+00,-0.000000e+00,-0.000000e+00,3.789654e-06,4.529419e-07
8.000000e-13,-0.000000e+00,-0.000000e+00,-0.000000e+00,5.070283e-06,5.980511e-07
1.000000e-12,-0.000000e+00,-0.000000e+00,-0.000000e+00,6.914525e-06,8.054682e-07
1.200000e-12,-0.000000e+00,-0.000000e+00,-0.000000e+00,9.521207e-06,1.096450e-06
1.400000e-12,-0.000000e+00,-0.000000e+00,-0.000000e+00,1.316604e-05,1.500676e-06
1.600000e-12,-0.000000e+00,-0.000000e+00,-0.000000e+00,1.822255e-05,2.059227e-06
1.800000e-12,-0.000000e+00,-0.000000e+00,-0.000000e+00,2.517961e-05,2.828642e-06
2.000000e-12,-0.000000e+00,-0.000000e+00,-0.000000e+00,3.463944e-05,3.886430e-06
2.200000e-12,-0.000000e+00,-0.000000e+00,-0.000000e+00,4.726018e-05,5.338441e-06
2.400000e-12,-0.000000e+00,-0.000000e+00,-0.000000e+00,6.358381e-05,7.328464e-06
2.600000e-12,-0.000000e+00,-0.000000e+00,-0.000000e+00,8.369079e-05,1.005031e-05
2.800000e-12,-0.000000e+00,-0.000000e+00,-0.000000e+00,1.067068e-04,1.376218e-05
3.000000e-12,-0.000000e+00,-0.000000e+00,-0.000000e+00,1.304055e-04,1.880178e-05
3.200000e-12,-0.000000e+00,-0.000000e+00,-0.000000e+00,1.513586e-04,2.559748e-05
3.400000e-12,-0.000000e+00,-0.000000e+00,-0.000000e+00,1.658422e-04,3.466319e-05
3.600000e-12,-0.000000e+00,-0.000000e+00,-0.000000e+00,1.710893e-04,4.655098e-05
3.800000e-12,-0.000000e+00,-0.000000e+00,-0.000000e+00,1.662273e-04,6.171737e-05
4.000000e-12,-0.000000e+00,-0.000000e+00,-0.000000e+00,1.524776e-04,8.025589e-05
4.200000e-12,-0.000000e+00,-0.000000e+00,-0.000000e+00,1.325801e-04,1.015038e-04
4.400000e-12,-0.000000e+00,-0.000000e+00,-0.000000e+00,1.097892e-04,1.236856e-04
4.600000e-12,-0.000000e+00,-0.000000e+00,-0.000000e+00,8.695700e-05,1.439329e-04
4.800000e-12,-0.000000e+00,-0.000000e+00,-0.000000e+00,6.605229e-05,1.589254e-04
5.000000e-12,-0.000000e+00,-0.000000e+00,-0.000000e+00,4.814247e-05,1.659364e-04
5.200000e-12,-0.000000e+00,-0.000000e+00,-0.000000e+00,3.364974e-05,1.637430e-04
5.400000e-12,-0.000000e+00,-0.000000e+00,-0.000000e+00,2.266668e-05,1.529683e-04
5.600000e-12,-0.000000e+00,-0.000000e+00,-0.000000e+00,1.519721e-05,1.357422e-04
5.800000e-12,-0.000000e+00,-0.000000e+00,-0.000000e+00,1.128581e-05,1.148990e-04
6.000000e-12,-0.000000e+00,-0.000000e+00,-0.000000e+00,1.105651e-05,9.312837e-05
6.200000e-12,-0.000000e+00,-0.000000e+00,-0.000000e+00,1.469981e-05,7.243296e-05
6.400000e-12,-0.000000e+00,-0.000000e+00,-0.000000e+00,2.243157e-05,5.399660e-05
6.600000e-12,-0.000000e+00,-0.000000e+00,-0.000000e+00,3.441967e-05,3.835138e-05
6.800000e-12,-0.000000e+00,-0.000000e+00,-0.000000e+00,5.064659e-05,2.565345e-05
7.000000e-12,-0.000000e+00,-0.000000e+00,-0.000000e+00,7.067606e-05,1.592043e-05
7.200000e-12,-0.000000e+00,-0.000000e+00,-0.000000e+00,9.334431e-05,9.170153e-06
7.400000e-12,-0.000000e+00,-0.000000e+00,-0.000000e+00,1.165045e-04,5.471199e-06
7.600000e-12,-0.000000e+00,-0.000000e+00,-0.000000e+00,1.370927e-04,4.943516e-06
7.800000e-12,-0.000000e+00,-0.000000e+00,-0.000000e+00,1.517725e-04,7.738726e-06
8.000000e-12,-0.000000e+00,-0.000000e+00,-0.000000e+00,1.579860e-04,1.400737e-05
8.200000e-12,-0.000000e+00,-0.000000e+00,-0.000000e+00,1.548178e-04,2.384339e-05
8.400000e-12,-0.000000e+00,-0.000000e+00,-0.000000e+00,1.432054e-04,3.719413e-05
8.600000e-12,-0.000000e+00,-0.000000e+00,-0.000000e+00,1.254563e-04,5.374086e-05
8.800000e-12,-0.000000e+00,-0.000000e+00,-0.000000e+00,1.043997e-04,7.277644e-05
9.000000e-12,-0.000000e+00,-0.000000e+00,-0.000000e+00,8.261233e-05,9.309845e-05
9.200000e-12,-0.000000e+00,-0.000000e+00,-0.000000e+00,6.200365e-05,1.129308e-04
9.400000e-12,-0.000000e+00,-0.000000e+00,-0.000000e+00,4.377982e-05,1.299894e-04
9.600000e-12,-0.000000e+00,-0.000000e+00,-0.000000e+00,2.862630e-05,1.418798e-04
9.800000e-12,-0.000000e+00,-0.000000e+00,-0.000000e+00,1.691716e-05,1.467669e-04
1.000000e-11,-0.000000e+00,-0.000000e+00,-0.000000e+00,8.843066e-06,1.439509e-04
1.020000e-11,-0.000000e+00,-0.000000e+00,-0.000000e+00,4.454439e-06,1.340300e-04
1.040000e-11,-0.000000e+00,-0.000000e+00,-0.000000e+00,3.668085e-06,1.186142e-04
1.060000e-11,-0.000000e+00,-0.000000e+00,-0.000000e+00,6.274265e-06,9.978108e-05
1.080000e-11,-0.000000e+00,-0.000000e+00,-0.000000e+00,1.194620e-05,7.953934e-05
1.100000e-11,-0.000000e+00,-0.000000e+00,-0.000000e+00,2.023712e-05,5.950020e-05
1.120000e-11,-0.000000e+00,-0.000000e+00,-0.000000e+00,3.056463e-05,4.081371e-05
1.140000e-11,-0.000000e+00,-0.000000e+00,-0.000000e+00,4.221077e-05,2.428594e-05
1.160000e-11,-0.000000e+00,-0.000000e+00,-0.000000e+00,5.437015e-05,1.052320e-05
1.180000e-11,-0.000000e+00,-0.000000e+00,-0.000000e+00,6.623765e-05,-9.100217e-09
1.200000e-11,-0.000000e+00,-0.000000e+00,-0.000000e+00,7.708383e-05,-7.016423e-06
1.220000e-11,-0.000000e+00,-0.000000e+00,-0.000000e+00,8.627836e-05,-1.042257e-05
1.240000e-11,-0.000000e+00,-0.000000e+00,-0.000000e+00,9.327603e-05,-1.037760e-05
1.260000e-11,-0.000000e+00,-0.000000e+00,-0.000000e+00,9.761214e-05,-7.227309e-06
1.280000e-11,-0.000000e+00,-0.000000e+00,-0.000000e+00,9.893440e-05,-1.481868e-06
1.300000e-11,-0.000000e+00,-0.000000e+00,-0.000000e+00,9.706032e-05,6.191646e-06
1.320000e-11,-0.000000e+00,-0.000000e+00,-0.000000e+00,9.202624e-05,1.497218e-05
1.340000e-11,-0.000000e+00,-0.000000e+00,-0.000000e+00,8.409673e-05,2.393277e-05
1.360000e-11,-0.000000e+00,-0.000000e+00,-0.000000e+00,7.372190e-05,3.215447e-05
1.380000e-11,-0.000000e+00,-0.000000e+00,-0.000000e+00,6.145995e-05,3.886097e-05
1.400000e-11,-0.000000e+00,-0.000000e+00,-0.000000e+00,4.790447e-05,4.350227e-05
1.420000e-11,-0.000000e+00,-0.000000e+00,-0.000000e+00,3.365394e-05,4.575651e-05
1.440000e-11,-0.000000e+00,-0.000000e+00,-0.000000e+00,1.932600e-05,4.547896e-05
1.460000e-11,-0.000000e+00,-0.000000e+00,-0.000000e+00,5.575828e-06,4.265435e-05
1.480000e-11,-0.000000e+00,-0.000000e+00,-0.000000e+00,-6.931614e-06,3.739457e-05
1.500000e-11,-0.000000e+00,-0.000000e+00,-0.000000e+00,-1.760242e-05,2.998393e-05
1.520000e-11,-0.000000e+00,-0.000000e+00,-0.000000e+00,-2.600197e-05,2.092964e-05
1.540000e-11,-0.000000e+00,-0.000000e+00,-0.000000e+00,-3.189686e-05,1.095797e-05
1.560000e-11,-0.000000e+00,-0.000000e+00,-0.000000e+00,-3.523558e-05,9.276091e-07
1.580000e-11,-0.000000e+00,-0.000000e+00,-0.000000e+00,-3.609555e-05,-8.309063e-06
1.600000e-11,-0.000000e+00,-0.000000e+00,-0.000000e+00,-3.463947e-05,-1.603351e-05
1.620000e-11,-0.000000e+00,-0.000000e+00,-0.000000e+00,-3.110753e-05,-2.173361e-05
1.640000e-11,-0.000000e+00,-0.000000e+00,-0.000000e+00,-2.583939e-05,-2.512193e-05
1.660000e-11,-0.000000e+00,-0.000000e+00,-0.000000e+00,-1.929490e-05,-2.612820e-05
1.680000e-11,-0.000000e+00,-0.000000e+00,-0.000000e+00,-1.204244e-05,-2.489062e-05
1.700000e-11,-0.000000e+00,-0.000000e+00,-0.000000e+00,-4.707699e-06,-2.174758e-05
1.720000e-11,-0.000000e+00,-0.000000e+00,-0.000000e+00,2.097826e-06,-1.721260e-05
1.740000e-11,-0.000000e+00,-0.000000e+00,-0.000000e+00,7.841598e-06,-1.191659e-05
1.760000e-11,-0.000000e+00,-0.000000e+00,-0.000000e+00,1.211382e-05,-6.519824e-06
1.780000e-11,-0.000000e+00,-0.000000e+00,-0.000000e+00,1.465274e-05,-1.615881e-06
1.800000e-11,-0.000000e+00,-0.000000e+00,-0.000000e+00,1.536073e-05,2.346391e-06
1.820000e-11,-0.000000e+00,-0.000000e+00,-0.000000e+00,1.431484e-05,5.107510e-06
1.840000e-11,-0.000000e+00,-0.000000e+00,-0.000000e+00,1.176606e-05,6.607836e-06
1.860000e-11,-0.000000e+00,-0.000000e+00,-0.000000e+00,8.118533e-06,6.970511e-06
1.880000e-11,-0.000000e+00,-0.000000e+00,-0.000000e+00,3.885846e-06,6.462639e-06
1.900000e-11,-0.000000e+00,-0.000000e+00,-0.000000e+00,-3.705427e-07,5.438257e-06
1.920000e-11,-0.000000e+00,-0.000000e+00,-0.000000e+00,-4.110066e-06,4.269045e-06
1.940000e-11,-0.000000e+00,-0.000000e+00,-0.000000e+00,-6.879134e-06,3.274148e-06
1.960000e-11,-0.000000e+00,-0.000000e+00,-0.000000e+00,-8.367179e-06,2.663350e-06
1.980000e-11,-0.000000e+00,-0.000000e+00,-0.000000e+00,-8.446876e-06,2.505031e-06
2.000000e-11,-0.000000e+00,-0.000000e+00,-0.000000e+00,-7.192708e-06,2.724065e-06
2.020000e-11,-0.000000e+00,-0.000000e+00,-0.000000e+00,-4.872503e-06,3.128624e-06
2.040000e-11,-0.000000e+00,-0.000000e+00,-0.000000e+00,-1.910067e-06,3.460514e-06
2.060000e-11,-0.000000e+00,-0.000000e+00,-0.000000e+00,1.180378e-06,3.458958e-06
2.080000e-11,-0.000000e+00,-0.000000e+00,-0.000000e+00,3.877819e-06,2.923796e-06
2.100000e-11,-0.000000e+00,-0.000000e+00,-0.000000e+00,5.739370e-06,1.764078e-06
2.120000e-11,-0.000000e+00,-0.000000e+00,-0.000000e+00,6.469801e-06,2.276778e-08
2.140000e-11,-0.000000e+00,-0.000000e+00,-0.000000e+00,5.964943e-06,-2.124986e-06
2.160000e-11,-0.000000e+00,-0.000000e+00,-0.000000e+00,4.324928e-06,-4.397689e-06
2.180000e-11,-0.000000e+00,-0.000000e+00,-0.000000e+00,1.836928e-06,-6.452963e-06
2.200000e-11,-0.000000e+00,-0.000000e+00,-0.000000e+00,-1.071231e-06,-7.946139e-06
2.220000e-11,-0.000000e+00,-0.000000e+00,-0.000000e+00,-3.901665e-06,-8.592158e-06
2.240000e-11,-0.000000e+00,-0.000000e+00,-0.000000e+00,-6.170117e-06,-8.218401e-06
2.260000e-11,-0.000000e+00,-0.000000e+00,-0.000000e+00,-7.486654e-06,-6.797478e-06
2.280000e-11,-0.000000e+00,-0.000000e+00,-0.000000e+00,-7.617986e-06,-4.454690e-06
2.300000e-11,-0.000000e+00,-0.000000e+00,-0.000000e+00,-6.522242e-06,-1.451316e-06
2.320000e-11,-0.000000e+00,-0.000000e+00,-0.000000e+00,-4.353888e-06,1.851353e-06
2.340000e-11,-0.000000e+00,-0.000000e+00,-0.000000e+00,-1.440047e-06,5.041606e-06
2.360000e-11,-0.000000e+00,-0.000000e+00,-0.000000e+00,1.769418e-06,7.714383e-06
2.380000e-11,-0.000000e+00,-0.000000e+00,-0.000000e+00,4.772999e-06,9.527816e-06
2.400000e-11,-0.000000e+00,-0.000000e+00,-0.000000e+00,7.099029e-06,1.024984e-05
2.420000e-11,-0.000000e+00,-0.000000e+00,-0.000000e+00,8.381813e-06,9.787078e-06
2.440000e-11,-0.000000e+00,-0.000000e+00,-0.000000e+00,8.417535e-06,8.192892e-06
2.460000e-11,-0.000000e+00,-0.000000e+00,-0.000000e+00,7.191790e-06,5.656287e-06
2.480000e-11,-0.000000e+00,-0.000000e+00,-0.000000e+00,4.878135e-06,2.475696e-06
2.500000e-11,-0.000000e+00,-0.000000e+00,-0.000000e+00,1.810764e-06,-9.785483e-07
2.520000e-11,-0.000000e+00,-0.000000e+00,-0.000000e+00,-1.565197e-06,-4.309560e-06
2.540000e-11,-0.000000e+00,-0.000000e+00,-0.000000e+00,-4.760940e-06,-7.142136e-06
2.560000e-11,-0.000000e+00,-0.000000e+00,-0.000000e+00,-7.319337e-06,-9.166919e-06
2.580000e-11,-0.000000e+00,-0.000000e+00,-0.000000e+00,-8.884377e-06,-1.017355e-05
2.600000e-11,-0.000000e+00,-0.000000e+00,-0.000000e+00,-9.251142e-06,-1.006895e-05
2.620000e-11,-0.000000e+00,-0.000000e+00,-0.000000e+00,-8.389040e-06,-8.881257e-06
2.640000e-11,-0.000000e+00,-0.000000e+00,-0.000000e+00,-6.438619e-06,-6.752150e-06
2.660000e-11,-0.000000e+00,-0.000000e+00,-0.000000e+00,-3.686250e-06,-3.920173e-06
2.680000e-11,-0.000000e+00,-0.000000e+00,-0.000000e+00,-5.210636e-07,-6.957054e-07
2.700000e-11,-0.000000e+00,-0.000000e+00,-0.000000e+00,2.621604e-06,2.571901e-06
2.720000e-11,-0.000000e+00,-0.000000e+00,-0.000000e+00,5.323382e-06,5.532400e-06
2.740000e-11,-0.000000e+00,-0.000000e+00,-0.000000e+00,7.242102e-06,7.872684e-06
2.760000e-11,-0.000000e+00,-0.000000e+00,-0.000000e+00,8.156031e-06,9.349010e-06
2.780000e-11,-0.000000e+00,-0.000000e+00,-0.000000e+00,7.986433e-06,9.809918e-06
2.800000e-11,-0.000000e+00,-0.000000e+00,-0.000000e+00,6.798204e-06,9.209446e-06
2.820000e-11,-0.000000e+00,-0.000000e+00,-0.000000e+00,4.782472e-06,7.611624e-06
2.840000e-11,-0.000000e+00,-0.000000e+00,-0.000000e+00,2.225694e-06,5.186307e-06
2.860000e-11,-0.000000e+00,-0.000000e+00,-0.000000e+00,-5.311345e-07,2.194877e-06
2.880000e-11,-0.000000e+00,-0.000000e+00,-0.000000e+00,-3.138917e-06,-1.035480e-06
2.900000e-11,-0.000000e+00,-0.000000e+00,-0.000000e+00,-5.286197e-06,-4.147500e-06
2.920000e-11,-0.000000e+00,-0.000000e+00,-0.000000e+00,-6.736644e-06,-6.794738e-06
2.940000e-11,-0.000000e+00,-0.000000e+00,-0.000000e+00,-7.352631e-06,-8.681216e-06
2.980000e-11,-0.000000e+00,-0.000000e+00,-0.000000e+00,-6.059545e-06,-9.429870e-06
3.000000e-11,-0.000000e+00,-0.000000e+00,-0.000000e+00,-4.378366e-06,-8.202805e-06
3.020000e-11,-0.000000e+00,-0.000000e+00,-0.000000e+00,-2.280787e-06,-6.051102e-06
3.040000e-11,-0.000000e+00,-0.000000e+00,-0.000000e+00,-2.377055e-08,-3.222265e-06
3.060000e-11,-0.000000e+00,-0.000000e+00,-0.000000e+00,2.130418e-06,-4.675610e-08
3.080000e-11,-0.000000e+00,-0.000000e+00,-0.000000e+00,3.943936e-06,3.101485e-06
3.100000e-11,-0.000000e+00,-0.000000e+00,-0.000000e+00,5.228063e-06,5.851683e-06
3.120000e-11,-0.000000e+00,-0.000000e+00,-0.000000e+00,5.860153e-06,7.882504e-06
3.140000e-11,-0.000000e+00,-0.000000e+00,-0.000000e+00,5.792281e-06,8.961052e-06
3.160000e-11,-0.000000e+00,-0.000000e+00,-0.000000e+00,5.052507e-06,8.970119e-06
3.180000e-11,-0.000000e+00,-0.000000e+00,-0.000000e+00,3.739777e-06,7.921581e-06
3.200000e-11,-0.000000e+00,-0.000000e+00,-0.000000e+00,2.012781e-06,5.955012e-06
3.220000e-11,-0.000000e+00,-0.000000e+00,-0.000000e+00,7.294964e-08,3.321026e-06
3.240000e-11,-0.000000e+00,-0.000000e+00,-0.000000e+00,-1.857437e-06,3.499529e-07
3.260000e-11,-0.000000e+00,-0.000000e+00,-0.000000e+00,-3.559706e-06,-2.591019e-06
3.280000e-11,-0.000000e+00,-0.000000e+00,-0.000000e+00,-4.842773e-06,-5.146079e-06
3.300000e-11,-0.000000e+00,-0.000000e+00,-0.000000e+00,-5.563909e-06,-7.016541e-06
3.320000e-11,-0.000000e+00,-0.000000e+00,-0.000000e+00,-5.644460e-06,-7.997087e-06
3.340000e-11,-0.000000e+00,-0.000000e+00,-0.000000e+00,-5.079290e-06,-7.998196e-06
3.360000e-11,-0.000000e+00,-0.000000e+00,-0.000000e+00,-3.938833e-06,-7.053317e-06
3.380000e-11,-0.000000e+00,-0.000000e+00,-0.000000e+00,-2.362674e-06,-5.311076e-06
3.400000e-11,-0.000000e+00,-0.000000e+00,-0.000000e+00,-5.442932e-07,-3.013617e-06
3.420000e-11,-0.000000e+00,-0.000000e+00,-0.000000e+00,1.291930e-06,-4.632361e-07
3.440000e-11,-0.000000e+00,-0.000000e+00,-0.000000e+00,2.918630e-06,2.018660e-06
3.460000e-11,-0.000000e+00,-0.000000e+00,-0.000000e+00,4.134398e-06,4.134179e-06
3.480000e-11,-0.000000e+00,-0.000000e+00,-0.000000e+00,4.789760e-06,5.646368e-06
3.500000e-11,-0.000000e+00,-0.000000e+00,-0.000000e+00,4.806833e-06,6.405959e-06
3.520000e-11,-0.000000e+00,-0.000000e+00,-0.000000e+00,4.190128e-06,6.364702e-06
3.540000e-11,-0.000000e+00,-0.000000e+00,-0.000000e+00,3.026859e-06,5.575061e-06
3.560000e-11,-0.000000e+00,-0.000000e+00,-0.000000e+00,1.476094e-06,4.177670e-06
3.580000e-11,-0.000000e+00,-0.000000e+00,-0.000000e+00,-2.523626e-07,2.378642e-06
3.600000e-11,-0.000000e+00,-0.000000e+00,-0.000000e+00,-1.926749e-06,4.196823e-07
3.620000e-11,-0.000000e+00,-0.000000e+00,-0.000000e+00,-3.325552e-06,-1.454969e-06
3.640000e-11,-0.000000e+00,-0.000000e+00,-0.000000e+00,-4.268206e-06,-3.029891e-06
3.660000e-11,-0.000000e+00,-0.000000e+00,-0.000000e+00,-4.639700e-06,-4.143475e-06
3.680000e-11,-0.000000e+00,-0.000000e+00,-0.000000e+00,-4.405644e-06,-4.703426e-06
3.700000e-11,-0.000000e+00,-0.000000e+00,-0.000000e+00,-3.615862e-06,-4.691718e-06
3.720000e-11,-0.000000e+00,-0.000000e+00,-0.000000e+00,-2.396089e-06,-4.159746e-06
3.740000e-11,-0.000000e+00,-0.000000e+00,-0.000000e+00,-9.288330e-07,-3.215447e-06
3.760000e-11,-0.000000e+00,-0.000000e+00,-0.000000e+00,5.739231e-07,-2.004704e-06
3.780000e-11,-0.000000e+00,-0.000000e+00,-0.000000e+00,1.902080e-06,-6.897635e-07
3.800000e-11,-0.000000e+00,-0.000000e+00,-0.000000e+00,2.877894e-06,5.723151e-07
3.820000e-11,-0.000000e+00,-0.000000e+00,-0.000000e+00,3.380754e-06,1.648166e-06
3.840000e-11,-0.000000e+00,-0.000000e+00,-0.000000e+00,3.362627e-06,2.441265e-06
3.860000e-11,-0.000000e+00,-0.000000e+00,-0.000000e+00,2.852248e-06,2.898555e-06
3.880000e-11,-0.000000e+00,-0.000000e+00,-0.000000e+00,1.947890e-06,3.010649e-06
3.900000e-11,-0.000000e+00,-0.000000e+00,-0.000000e+00,8.001459e-07,2.806649e-06
3.920000e-11,-0.000000e+00,-0.000000e+00,-0.000000e+00,-4.125234e-07,2.345142e-06
3.940000e-11,-0.000000e+00,-0.000000e+00,-0.000000e+00,-1.511609e-06,1.703114e-06
3.960000e-11,-0.000000e+00,-0.000000e+00,-0.000000e+00,-2.345279e-06,9.645135e-07
3.980000e-11,-0.000000e+00,-0.000000e+00,-0.000000e+00,-2.809767e-06,2.100283e-07
4.000000e-11,-0.000000e+00,-0.000000e+00,-0.000000e+00,-2.862265e-06,-4.907390e-07
4.020000e-11,-0.000000e+00,-0.000000e+00,-0.000000e+00,-2.523801e-06,-1.084086e-06
4.040000e-11,-0.000000e+00,-0.000000e+00,-0.000000e+00,-1.872270e-06,-1.534019e-06
4.060000e-11,-0.000000e+00,-0.000000e+00,-0.000000e+00,-1.027242e-06,-1.821579e-06
4.080000e-11,-0.000000e+00,-0.000000e+00,-0.000000e+00,-1.292307e-07,-1.942528e-06
4.100000e-11,-0.000000e+00,-0.000000e+00,-0.000000e+00,6.831249e-07,-1.904278e-06
4.120000e-11,-0.000000e+00,-0.000000e+00,-0.000000e+00,1.294288e-06,-1.722834e-06
4.140000e-11,-0.000000e+00,-0.000000e+00,-0.000000e+00,1.628111e-06,-1.420282e-06
4.160000e-11,-0.000000e+00,-0.000000e+00,-0.000000e+00,1.656842e-06,-1.023068e-06
4.180000e-11,-0.000000e+00,-0.000000e+00,-0.000000e+00,1.401906e-06,-5.610141e-07
4.200000e-11,-0.000000e+00,-0.000000e+00,-0.000000e+00,9.269256e-07,-6.678950e-08
4.220000e-11,-0.000000e+00,-0.000000e+00,-0.000000e+00,3.246424e-07,4.245937e-07
4.240000e-11,-0.000000e+00,-0.000000e+00,-0.000000e+00,-2.998247e-07,8.767171e-07
4.260000e-11,-0.000000e+00,-0.000000e+00,-0.000000e+00,-8.465009e-07,1.253450e-06
4.280000e-11,-0.000000e+00,-0.000000e+00,-0.000000e+00,-1.236005e-06,1.521506e-06
4.300000e-11,-0.000000e+00,-0.000000e+00,-0.000000e+00,-1.420547e-06,1.653692e-06
4.320000e-11,-0.000000e+00,-0.000000e+00,-0.000000e+00,-1.388996e-06,1.632422e-06
4.340000e-11,-0.000000e+00,-0.000000e+00,-0.000000e+00,-1.165657e-06,1.452927e-06
4.360000e-11,-0.000000e+00,-0.000000e+00,-0.000000e+00,-8.034653e-07,1.125501e-06
4.380000e-11,-0.000000e+00,-0.000000e+00,-0.000000e+00,-3.731528e-07,6.762253e-07
4.400000e-11,-0.000000e+00,-0.000000e+00,-0.000000e+00,4.957110e-08,1.457681e-07
4.420000e-11,-0.000000e+00,-0.000000e+00,-0.000000e+00,3.966075e-07,-4.138750e-07
4.440000e-11,-0.000000e+00,-0.000000e+00,-0.000000e+00,6.178097e-07,-9.444892e-07
4.460000e-11,-0.000000e+00,-0.000000e+00,-0.000000e+00,6.875640e-07,-1.388072e-06
4.480000e-11,-0.000000e+00,-0.000000e+00,-0.000000e+00,6.068403e-07,-1.693781e-06
4.500000e-11,-0.000000e+00,-0.000000e+00,-0.000000e+00,4.007701e-07,-1.824455e-06
4.520000e-11,-0.000000e+00,-0.000000e+00,-0.000000e+00,1.125481e-07,-1.761773e-06
4.540000e-11,-0.000000e+00,-0.000000e+00,-0.000000e+00,-2.050248e-07,-1.509277e-06
4.560000e-11,-0.000000e+00,-0.000000e+00,-0.000000e+00,-4.987861e-07,-1.092742e-06
4.580000e-11,-0.000000e+00,-0.000000e+00,-0.000000e+00,-7.236895e-07,-5.577230e-07
4.600000e-11,-0.000000e+00,-0.000000e+00,-0.000000e+00,-8.492211e-07,3.550948e-08
4.620000e-11,-0.000000e+00,-0.000000e+00,-0.000000e+00,-8.629106e-07,6.190559e-07
4.640000e-11,-0.000000e+00,-0.000000e+00,-0.000000e+00,-7.706519e-07,1.125608e-06
4.660000e-11,-0.000000e+00,-0.000000e+00,-0.000000e+00,-5.941069e-07,1.496714e-06
4.680000e-11,-0.000000e+00,-0.000000e+00,-0.000000e+00,-3.659127e-07,1.690000e-06
4.700000e-11,-0.000000e+00,-0.000000e+00,-0.000000e+00,-1.236892e-07,1.684377e-06
4.720000e-11,-0.000000e+00,-0.000000e+00,-0.000000e+00,9.608541e-08,1.482585e-06
4.740000e-11,-0.000000e+00,-0.000000e+00,-0.000000e+00,2.633669e-07,1.110726e-06
4.760000e-11,-0.000000e+00,-0.000000e+00,-0.000000e+00,3.582834e-07,6.148742e-07
4.780000e-11,-0.000000e+00,-0.000000e+00,-0.000000e+00,3.729353e-07,5.520276e-08
4.800000e-11,-0.000000e+00,-0.000000e+00,-0.000000e+00,3.112268e-07,-5.015956e-07
4.820000e-11,-0.000000e+00,-0.000000e+00,-0.000000e+00,1.870189e-07,-9.905884e-07
4.840000e-11,-0.000000e+00,-0.000000e+00,-0.000000e+00,2.111800e-08,-1.356499e-06
4.860000e-11,-0.000000e+00,-0.000000e+00,-0.000000e+00,-1.622865e-07,-1.560200e-06
