time,"I(LQ|XCOUT)","I(LQ|XSUM)"
0.000000e+00,1.097613e-05,1.313500e-05
2.000000e-13,1.251529e-05,1.498027e-05
4.000000e-13,1.529706e-05,1.830700e-05
6.000000e-13,1.969877e-05,2.354791e-05
8.000000e-13,2.613300e-05,3.114506e-05
1.000000e-12,3.503853e-05,4.149854e-05
1.200000e-12,4.673254e-05,5.473334e-05
1.400000e-12,6.109104e-05,7.030960e-05
1.600000e-12,7.716054e-05,8.672627e-05
1.800000e-12,9.304674e-05,1.017024e-04
2.000000e-12,1.063504e-04,1.128516e-04
2.200000e-12,1.149282e-04,1.184316e-04
2.400000e-12,1.175423e-04,1.178256e-04
2.600000e-12,1.141746e-04,1.116583e-04
2.800000e-12,1.059708e-04,1.015568e-04
3.000000e-12,9.485028e-05,8.963642e-05
3.200000e-12,8.293417e-05,7.792973e-05
3.400000e-12,7.204223e-05,6.799335e-05
3.600000e-12,6.343413e-05,6.078630e-05
3.800000e-12,5.780138e-05,5.675198e-05
4.000000e-12,5.539929e-05,5.597409e-05
4.200000e-12,5.619502e-05,5.830134e-05
4.400000e-12,5.995283e-05,6.339043e-05
4.600000e-12,6.623185e-05,7.067047e-05
4.800000e-12,7.432472e-05,7.928433e-05
5.000000e-12,8.321697e-05,8.809908e-05
5.200000e-12,9.166235e-05,9.585321e-05
5.400000e-12,9.840169e-05,1.014127e-04
5.600000e-12,1.024464e-04,1.040288e-04
5.800000e-12,1.033059e-04,1.034959e-04
6.000000e-12,1.010768e-04,1.001612e-04
6.200000e-12,9.637849e-05,9.480061e-05
6.400000e-12,9.016645e-05,8.840767e-05
6.600000e-12,8.349461e-05,8.196994e-05
6.800000e-12,7.730467e-05,7.629868e-05
7.000000e-12,7.229698e-05,7.194525e-05
7.200000e-12,6.889305e-05,6.919719e-05
7.400000e-12,6.726399e-05,6.812278e-05
7.600000e-12,6.738622e-05,6.862846e-05
7.800000e-12,6.909195e-05,7.050445e-05
8.000000e-12,7.209804e-05,7.344988e-05
8.200000e-12,7.601592e-05,7.708498e-05
8.400000e-12,8.036161e-05,8.096773e-05
8.600000e-12,8.458849e-05,8.463020e-05
8.800000e-12,8.815276e-05,8.763633e-05
9.000000e-12,9.059949e-05,8.964750e-05
9.200000e-12,9.164212e-05,9.047478e-05
9.400000e-12,9.120865e-05,9.010113e-05
9.600000e-12,8.944077e-05,8.866765e-05
9.800000e-12,8.664825e-05,8.642977e-05
1.000000e-11,8.323414e-05,8.369721e-05
1.020000e-11,7.961361e-05,8.077476e-05
1.040000e-11,7.614785e-05,7.791766e-05
1.060000e-11,7.310601e-05,7.530825e-05
1.080000e-11,7.065620e-05,7.305283e-05
1.100000e-11,6.887732e-05,7.119202e-05
1.120000e-11,6.777952e-05,6.971629e-05
1.140000e-11,6.732300e-05,6.858051e-05
1.160000e-11,6.743042e-05,6.771529e-05
1.180000e-11,6.799346e-05,6.703554e-05
1.200000e-11,6.887768e-05,6.644861e-05
1.220000e-11,6.992985e-05,6.586306e-05
1.240000e-11,7.098954e-05,6.519792e-05
1.260000e-11,7.190403e-05,6.439077e-05
1.280000e-11,7.254296e-05,6.340245e-05
1.300000e-11,7.280936e-05,6.221699e-05
1.320000e-11,7.264444e-05,6.083703e-05
1.340000e-11,7.202627e-05,5.927594e-05
1.360000e-11,7.096360e-05,5.754917e-05
1.380000e-11,6.948730e-05,5.566662e-05
1.400000e-11,6.764141e-05,5.362717e-05
1.420000e-11,6.547497e-05,5.141547e-05
1.440000e-11,6.303496e-05,4.899988e-05
1.460000e-11,6.035978e-05,4.633078e-05
1.480000e-11,5.747342e-05,4.333940e-05
1.500000e-11,5.438035e-05,3.993802e-05
1.520000e-11,5.106213e-05,3.602390e-05
1.540000e-11,4.747672e-05,3.148941e-05
1.560000e-11,4.356127e-05,2.624054e-05
1.580000e-11,3.923864e-05,2.022473e-05
1.600000e-11,3.442820e-05,1.346546e-05
1.620000e-11,2.906102e-05,6.094841e-06
1.640000e-11,2.310012e-05,-1.631326e-06
1.660000e-11,1.656444e-05,-9.351503e-06
1.680000e-11,9.551553e-06,-1.664986e-05
1.700000e-11,2.249281e-06,-2.312025e-05
1.720000e-11,-5.074338e-06,-2.841328e-05
1.740000e-11,-1.210498e-05,-3.225160e-05
1.760000e-11,-1.852777e-05,-3.442101e-05
1.780000e-11,-2.406452e-05,-3.475833e-05
1.800000e-11,-2.848766e-05,-3.315423e-05
1.820000e-11,-3.161171e-05,-2.957872e-05
1.840000e-11,-3.327557e-05,-2.412709e-05
1.860000e-11,-3.333217e-05,-1.707368e-05
1.880000e-11,-3.165629e-05,-8.908316e-06
1.900000e-11,-2.817336e-05,-3.191091e-07
1.920000e-11,-2.290608e-05,7.899634e-06
1.940000e-11,-1.602990e-05,1.498795e-05
1.960000e-11,-7.919577e-06,2.034439e-05
1.980000e-11,8.431517e-07,2.358399e-05
2.000000e-11,9.527802e-06,2.453094e-05
2.020000e-11,1.737119e-05,2.318558e-05
2.040000e-11,2.370407e-05,1.971231e-05
2.060000e-11,2.803151e-05,1.445883e-05
2.080000e-11,3.004647e-05,7.973487e-06
2.100000e-11,2.960169e-05,9.685500e-07
2.120000e-11,2.668563e-05,-5.789511e-06
2.140000e-11,2.143850e-05,-1.161940e-05
2.160000e-11,1.421101e-05,-1.602560e-05
2.180000e-11,5.619495e-06,-1.872578e-05
2.200000e-11,-3.479636e-06,-1.962266e-05
2.220000e-11,-1.212984e-05,-1.876362e-05
2.240000e-11,-1.946538e-05,-1.631941e-05
2.260000e-11,-2.484653e-05,-1.258241e-05
2.280000e-11,-2.788794e-05,-7.959693e-06
2.300000e-11,-2.841154e-05,-2.937411e-06
2.320000e-11,-2.639476e-05,1.983305e-06
2.340000e-11,-2.196941e-05,6.354405e-06
2.360000e-11,-1.547687e-05,9.826723e-06
2.380000e-11,-7.525092e-06,1.216503e-05
2.400000e-11,1.037228e-06,1.324292e-05
2.420000e-11,9.262487e-06,1.303396e-05
2.440000e-11,1.629521e-05,1.160756e-05
2.460000e-11,2.150684e-05,9.126938e-06
2.480000e-11,2.452594e-05,5.840958e-06
2.500000e-11,2.519598e-05,2.064163e-06
2.520000e-11,2.352757e-05,-1.853415e-06
2.540000e-11,1.969263e-05,-5.560250e-06
2.560000e-11,1.405800e-05,-8.734437e-06
2.580000e-11,7.207954e-06,-1.110858e-05
2.600000e-11,-1.033699e-07,-1.248828e-05
2.620000e-11,-7.076901e-06,-1.276523e-05
2.640000e-11,-1.301286e-05,-1.192560e-05
2.660000e-11,-1.740404e-05,-1.005360e-05
2.680000e-11,-1.995429e-05,-7.329147e-06
2.700000e-11,-2.055001e-05,-4.017222e-06
2.720000e-11,-1.922963e-05,-4.464135e-07
2.740000e-11,-1.617616e-05,3.024172e-06
2.760000e-11,-1.172448e-05,6.045691e-06
2.780000e-11,-6.352209e-06,8.320007e-06
2.800000e-11,-6.301488e-07,9.631505e-06
2.820000e-11,4.860578e-06,9.866161e-06
2.840000e-11,9.611615e-06,9.019008e-06
2.860000e-11,1.323966e-05,7.193306e-06
2.880000e-11,1.550079e-05,4.592533e-06
2.900000e-11,1.628155e-05,1.502639e-06
2.920000e-11,1.558662e-05,-1.738476e-06
2.940000e-11,1.353271e-05,-4.782484e-06
2.980000e-11,6.343625e-06,-9.091094e-06
3.000000e-11,1.917450e-06,-9.958677e-06
3.020000e-11,-2.519766e-06,-9.864854e-06
3.040000e-11,-6.572982e-06,-8.855121e-06
3.060000e-11,-9.902738e-06,-7.065751e-06
3.080000e-11,-1.224855e-05,-4.710048e-06
3.100000e-11,-1.344054e-05,-2.055804e-06
3.120000e-11,-1.340421e-05,6.062871e-07
3.140000e-11,-1.216256e-05,2.998494e-06
3.160000e-11,-9.836625e-06,4.888299e-06
3.180000e-11,-6.641824e-06,6.110771e-06
3.200000e-11,-2.875742e-06,6.579401e-06
3.220000e-11,1.106023e-06,6.287612e-06
3.240000e-11,4.925219e-06,5.303886e-06
3.260000e-11,8.221605e-06,3.761646e-06
3.280000e-11,1.069033e-05,1.843538e-06
3.300000e-11,1.210939e-05,-2.397089e-07
3.320000e-11,1.235569e-05,-2.273447e-06
3.340000e-11,1.141265e-05,-4.062143e-06
3.360000e-11,9.372895e-06,-5.447487e-06
3.380000e-11,6.436136e-06,-6.319913e-06
3.400000e-11,2.897623e-06,-6.624040e-06
3.420000e-11,-8.781988e-07,-6.359439e-06
3.440000e-11,-4.499210e-06,-5.577668e-06
3.460000e-11,-7.594452e-06,-4.375646e-06
3.480000e-11,-9.858031e-06,-2.885298e-06
3.500000e-11,-1.107904e-05,-1.259990e-06
3.520000e-11,-1.115631e-05,3.407808e-07
3.540000e-11,-1.010255e-05,1.766559e-06
3.560000e-11,-8.042553e-06,2.889327e-06
3.580000e-11,-5.204730e-06,3.614095e-06
3.600000e-11,-1.901465e-06,3.886187e-06
3.620000e-11,1.505484e-06,3.694964e-06
3.640000e-11,4.650752e-06,3.073776e-06
3.660000e-11,7.211716e-06,2.096044e-06
3.680000e-11,8.944228e-06,8.676419e-07
3.700000e-11,9.702652e-06,-4.838718e-07
3.720000e-11,9.446373e-06,-1.822178e-06
3.740000e-11,8.237816e-06,-3.015939e-06
3.760000e-11,6.234500e-06,-3.951850e-06
3.780000e-11,3.673491e-06,-4.545566e-06
3.800000e-11,8.454985e-07,-4.749381e-06
3.820000e-11,-1.940443e-06,-4.556000e-06
3.840000e-11,-4.395324e-06,-3.998210e-06
3.860000e-11,-6.282973e-06,-3.144593e-06
3.880000e-11,-7.441572e-06,-2.091686e-06
3.900000e-11,-7.793271e-06,-9.532839e-07
3.920000e-11,-7.344805e-06,1.520329e-07
3.940000e-11,-6.181881e-06,1.113690e-06
3.960000e-11,-4.457958e-06,1.840606e-06
3.980000e-11,-2.376622e-06,2.269978e-06
4.000000e-11,-1.678450e-07,2.372466e-06
4.020000e-11,1.938891e-06,2.153500e-06
4.040000e-11,3.739804e-06,1.650884e-06
4.060000e-11,5.076161e-06,9.291989e-07
4.080000e-11,5.845997e-06,7.167918e-08
4.100000e-11,6.008741e-06,-8.294700e-07
4.120000e-11,5.584244e-06,-1.683172e-06
4.140000e-11,4.647159e-06,-2.408749e-06
4.160000e-11,3.317005e-06,-2.943317e-06
4.180000e-11,1.744251e-06,-3.246632e-06
4.200000e-11,9.366354e-08,-3.303208e-06
4.220000e-11,-1.472960e-06,-3.121866e-06
4.240000e-11,-2.812337e-06,-2.733076e-06
4.260000e-11,-3.811832e-06,-2.184576e-06
4.280000e-11,-4.397457e-06,-1.535774e-06
4.300000e-11,-4.537760e-06,-8.515500e-07
4.320000e-11,-4.243898e-06,-1.960794e-07
4.340000e-11,-3.566202e-06,3.727484e-07
4.360000e-11,-2.587571e-06,8.078706e-07
4.380000e-11,-1.414240e-06,1.076311e-06
4.400000e-11,-1.648369e-07,1.161076e-06
4.420000e-11,1.041183e-06,1.061719e-06
4.440000e-11,2.094529e-06,7.936506e-07
4.460000e-11,2.905490e-06,3.863100e-07
4.480000e-11,3.411006e-06,-1.196461e-07
4.500000e-11,3.578957e-06,-6.759537e-07
4.520000e-11,3.409508e-06,-1.230899e-06
4.540000e-11,2.933579e-06,-1.733742e-06
4.560000e-11,2.208720e-06,-2.139082e-06
4.580000e-11,1.312798e-06,-2.410844e-06
4.600000e-11,3.360799e-07,-2.525537e-06
4.620000e-11,-6.275840e-07,-2.474476e-06
4.640000e-11,-1.489606e-06,-2.264720e-06
4.660000e-11,-2.174658e-06,-1.918548e-06
4.680000e-11,-2.627042e-06,-1.471456e-06
4.700000e-11,-2.814898e-06,-9.687742e-07
4.720000e-11,-2.732027e-06,-4.611906e-07
4.740000e-11,-2.397325e-06,4.010500e-10
4.760000e-11,-1.852037e-06,3.701722e-07
4.780000e-11,-1.155118e-06,6.121618e-07
4.800000e-11,-3.771415e-07,7.040484e-07
4.820000e-11,4.066827e-07,6.394448e-07
4.840000e-11,1.123667e-06,4.284456e-07
4.860000e-11,1.710274e-06,9.635409e-08
4.880000e-11,2.117566e-06,-3.192722e-07
4.900000e-11,2.315037e-06,-7.729205e-07
4.920000e-11,2.292603e-06,-1.216259e-06
4.940000e-11,2.060694e-06,-1.603492e-06
4.960000e-11,1.648538e-06,-1.896290e-06
4.980000e-11,1.100842e-06,-2.067713e-06
5.000000e-11,4.731632e-07,-2.104716e-06
5.020000e-11,-1.735585e-07,-2.009003e-06
5.040000e-11,-7.788005e-07,-1.796203e-06
5.060000e-11,-1.288011e-06,-1.493560e-06
5.080000e-11,-1.657403e-06,-1.136440e-06
5.100000e-11,-1.857594e-06,-7.641213e-07
5.120000e-11,-1.875805e-06,-4.153769e-07
5.140000e-11,-1.716496e-06,-1.243823e-07
5.160000e-11,-1.400434e-06,8.261413e-08
5.180000e-11,-9.622885e-07,1.895265e-07
5.200000e-11,-4.470107e-07,1.914136e-07
5.220000e-11,9.466131e-08,9.420781e-08
5.240000e-11,6.111309e-07,-8.666926e-08
5.260000e-11,1.054817e-06,-3.285568e-07
5.280000e-11,1.386508e-06,-6.043533e-07
5.300000e-11,1.578786e-06,-8.855183e-07
5.320000e-11,1.618240e-06,-1.144947e-06
5.340000e-11,1.506284e-06,-1.359437e-06
5.360000e-11,1.258560e-06,-1.511557e-06
5.380000e-11,9.030083e-07,-1.590796e-06
5.400000e-11,4.768282e-07,-1.593988e-06
5.420000e-11,2.263753e-08,-1.525047e-06
5.440000e-11,-4.157682e-07,-1.394121e-06
5.460000e-11,-7.976290e-07,-1.216283e-06
5.480000e-11,-1.088989e-06,-1.009930e-06
5.500000e-11,-1.265667e-06,-7.950126e-07
5.520000e-11,-1.315171e-06,-5.912651e-07
5.540000e-11,-1.237434e-06,-4.165544e-07
5.560000e-11,-1.044341e-06,-2.854596e-07
5.580000e-11,-7.581514e-07,-2.081720e-07
5.600000e-11,-4.090175e-07,-1.897817e-07
5.620000e-11,-3.185056e-08,-2.299940e-07
5.640000e-11,3.371272e-07,-3.232904e-07
5.660000e-11,6.638110e-07,-4.595247e-07
5.680000e-11,9.192951e-07,-6.249074e-07
5.700000e-11,1.082339e-06,-8.033026e-07
5.720000e-11,1.141019e-06,-9.777308e-07
5.740000e-11,1.093467e-06,-1.131945e-06
5.760000e-11,9.476646e-07,-1.251939e-06
5.780000e-11,7.203671e-07,-1.327237e-06
5.800000e-11,4.352720e-07,-1.351843e-06
5.820000e-11,1.206318e-07,-1.324751e-06
5.840000e-11,-1.934653e-07,-1.249958e-06
5.860000e-11,-4.778934e-07,-1.135984e-06
5.880000e-11,-7.071147e-07,-9.949424e-07
5.900000e-11,-8.614060e-07,-8.412675e-07
5.920000e-11,-9.285030e-07,-6.902238e-07
5.940000e-11,-9.045338e-07,-5.563678e-07
5.960000e-11,-7.941767e-07,-4.521199e-07
5.980000e-11,-6.100400e-07,-3.865950e-07
6.000000e-11,-3.713304e-07,-3.648089e-07
6.020000e-11,-1.019344e-07,-3.873285e-07
6.040000e-11,1.719074e-07,-4.503865e-07
6.060000e-11,4.241152e-07,-5.464263e-07
6.080000e-11,6.312364e-07,-6.650006e-07
6.100000e-11,7.746300e-07,-7.939144e-07
6.120000e-11,8.421627e-07,-9.204816e-07
6.140000e-11,8.292570e-07,-1.032764e-06
6.160000e-11,7.391957e-07,-1.120670e-06
6.180000e-11,5.826566e-07,-1.176822e-06
6.200000e-11,3.765289e-07,-1.197114e-06
6.220000e-11,1.421321e-07,-1.180946e-06
6.240000e-11,-9.697790e-08,-1.131118e-06
6.260000e-11,-3.173902e-07,-1.053430e-06
6.280000e-11,-4.981594e-07,-9.560370e-07
6.300000e-11,-6.228282e-07,-8.486204e-07
6.320000e-11,-6.809496e-07,-7.414699e-07
6.340000e-11,-6.689613e-07,-6.445446e-07
6.360000e-11,-5.903379e-07,-5.665943e-07
6.380000e-11,-4.550246e-07,-5.144105e-07
6.400000e-11,-2.782300e-07,-4.922628e-07
6.420000e-11,-7.872068e-08,-5.015622e-07
6.440000e-11,1.231865e-07,-5.407773e-07
6.460000e-11,3.077166e-07,-6.056103e-07
6.480000e-11,4.575898e-07,-6.894176e-07
6.500000e-11,5.596385e-07,-7.838443e-07
6.520000e-11,6.059360e-07,-8.796178e-07
6.540000e-11,5.943430e-07,-9.674335e-07
6.560000e-11,5.284477e-07,-1.038851e-06
6.580000e-11,4.169370e-07,-1.087115e-06
6.600000e-11,2.724943e-07,-1.107821e-06
6.620000e-11,1.103625e-07,-1.099349e-06
6.640000e-11,-5.326349e-08,-1.063025e-06
6.660000e-11,-2.028435e-07,-1.002977e-06
6.680000e-11,-3.249387e-07,-9.257012e-07
6.700000e-11,-4.093681e-07,-8.393751e-07
6.720000e-11,-4.499818e-07,-7.529912e-07
6.740000e-11,-4.450080e-07,-6.754027e-07
6.760000e-11,-3.969698e-07,-6.143866e-07
6.780000e-11,-3.122144e-07,-5.758293e-07
6.800000e-11,-2.001246e-07,-5.631265e-07
6.820000e-11,-7.210870e-08,-5.768645e-07
6.840000e-11,5.952626e-08,-6.148181e-07
6.860000e-11,1.827110e-07,-6.722601e-07
6.880000e-11,2.866623e-07,-7.425432e-07
6.900000e-11,3.627614e-07,-8.178808e-07
6.920000e-11,4.052021e-07,-8.902327e-07
6.940000e-11,4.113696e-07,-9.521891e-07
6.960000e-11,3.819368e-07,-9.977521e-07
6.980000e-11,3.206848e-07,-1.022927e-06
7.000000e-11,2.340736e-07,-1.026064e-06
7.020000e-11,1.306071e-07,-1.007921e-06
7.040000e-11,2.004728e-08,-9.714574e-07
7.060000e-11,-8.745696e-08,-9.213922e-07
7.080000e-11,-1.822563e-07,-8.635946e-07
7.100000e-11,-2.560317e-07,-8.043863e-07
7.120000e-11,-3.025036e-07,-7.498402e-07
7.140000e-11,-3.179593e-07,-7.051557e-07
7.160000e-11,-3.015563e-07,-6.741747e-07
7.180000e-11,-2.553719e-07,-6.590832e-07
7.200000e-11,-1.841931e-07,-6.603128e-07
7.220000e-11,-9.506157e-08,-6.766384e-07
7.240000e-11,3.388887e-09,-7.054395e-07
7.260000e-11,1.017443e-07,-7.430828e-07
7.280000e-11,1.906989e-07,-7.853703e-07
7.300000e-11,2.619366e-07,-8.279999e-07
7.320000e-11,3.089204e-07,-8.669873e-07
7.340000e-11,3.275122e-07,-8.990114e-07
7.360000e-11,3.163607e-07,-9.216590e-07
7.380000e-11,2.770149e-07,-9.335560e-07
7.400000e-11,2.137525e-07,-9.343896e-07
7.420000e-11,1.331362e-07,-9.248342e-07
7.440000e-11,4.334337e-08,-9.064011e-07
7.460000e-11,-4.666397e-08,-8.812365e-07
7.480000e-11,-1.280422e-07,-8.518915e-07
7.500000e-11,-1.929501e-07,-8.210859e-07
7.520000e-11,-2.353220e-07,-7.914837e-07
7.540000e-11,-2.514503e-07,-7.654947e-07
7.560000e-11,-2.403191e-07,-7.451095e-07
7.580000e-11,-2.036574e-07,-7.317759e-07
7.600000e-11,-1.457097e-07,-7.263190e-07
7.620000e-11,-7.275322e-08,-7.289054e-07
7.640000e-11,7.583710e-09,-7.390540e-07
7.660000e-11,8.712666e-08,-7.556889e-07
7.680000e-11,1.579969e-07,-7.772342e-07
7.700000e-11,2.134011e-07,-8.017438e-07
7.720000e-11,2.482880e-07,-8.270595e-07
7.740000e-11,2.598084e-07,-8.509869e-07
7.760000e-11,2.475350e-07,-8.714768e-07
7.780000e-11,2.134296e-07,-8.867965e-07
7.800000e-11,1.615676e-07,-8.956786e-07
7.820000e-11,9.765721e-08,-8.974306e-07
7.840000e-11,2.841130e-08,-8.919964e-07
7.860000e-11,-3.916001e-08,-8.799608e-07
7.880000e-11,-9.845942e-08,-8.624966e-07
7.900000e-11,-1.439437e-07,-8.412573e-07
7.920000e-11,-1.716338e-07,-8.182240e-07
7.940000e-11,-1.794490e-07,-7.955227e-07
7.960000e-11,-1.673381e-07,-7.752270e-07
7.980000e-11,-1.372049e-07,-7.591674e-07
8.000000e-11,-9.264445e-08,-7.487632e-07
8.020000e-11,-3.852388e-08,-7.448955e-07
8.040000e-11,1.954297e-08,-7.478310e-07
8.060000e-11,7.577152e-08,-7.572043e-07
8.080000e-11,1.247745e-07,-7.720596e-07
8.100000e-11,1.620677e-07,-7.909461e-07
8.120000e-11,1.844676e-07,-8.120590e-07
8.140000e-11,1.903473e-07,-8.334098e-07
8.160000e-11,1.797332e-07,-8.530123e-07
8.180000e-11,1.542401e-07,-8.690650e-07
8.200000e-11,1.168562e-07,-8.801153e-07
8.220000e-11,7.160701e-08,-8.851892e-07
8.240000e-11,2.313228e-08,-8.838766e-07
8.260000e-11,-2.378010e-08,-8.763647e-07
8.280000e-11,-6.465750e-08,-8.634165e-07
8.300000e-11,-9.576027e-08,-8.462972e-07
8.320000e-11,-1.144159e-07,-8.266549e-07
8.340000e-11,-1.192404e-07,-8.063657e-07
8.360000e-11,-1.102304e-07,-7.873582e-07
8.380000e-11,-8.871974e-08,-7.714323e-07
8.400000e-11,-5.720922e-08,-7.600893e-07
8.420000e-11,-1.908933e-08,-7.543891e-07
8.440000e-11,2.171552e-08,-7.548479e-07
8.460000e-11,6.114447e-08,-7.613879e-07
8.480000e-11,9.540010e-08,-7.733427e-07
8.500000e-11,1.213118e-07,-7.895208e-07
8.520000e-11,1.366276e-07,-8.083204e-07
8.540000e-11,1.402082e-07,-8.278856e-07
8.560000e-11,1.321052e-07,-8.462897e-07
8.580000e-11,1.135191e-07,-8.617257e-07
8.600000e-11,8.664467e-08,-8.726874e-07
8.620000e-11,5.442079e-08,-8.781202e-07
8.640000e-11,2.021353e-08,-8.775268e-07
8.660000e-11,-1.253415e-08,-8.710166e-07
8.680000e-11,-4.064928e-08,-8.592932e-07
8.700000e-11,-6.153708e-08,-8.435801e-07
8.720000e-11,-7.342006e-08,-8.254940e-07
8.740000e-11,-7.548561e-08,-8.068769e-07
8.760000e-11,-6.793006e-08,-7.896063e-07
8.780000e-11,-5.189839e-08,-7.754027e-07
8.800000e-11,-2.932965e-08,-7.656544e-07
8.820000e-11,-2.728020e-09,-7.612800e-07
8.840000e-11,2.511374e-08,-7.626391e-07
8.860000e-11,5.140772e-08,-7.695043e-07
8.880000e-11,7.364985e-08,-7.810927e-07
8.900000e-11,8.985646e-08,-7.961554e-07
8.920000e-11,9.873590e-08,-8.131134e-07
8.940000e-11,9.978120e-08,-8.302248e-07
8.960000e-11,9.327852e-08,-8.457654e-07
8.980000e-11,8.023546e-08,-8.582042e-07
9.000000e-11,6.224141e-08,-8.663541e-07
9.020000e-11,4.127852e-08,-8.694854e-07
9.040000e-11,1.950546e-08,-8.673887e-07
9.060000e-11,-9.622968e-10,-8.603845e-07
9.080000e-11,-1.825350e-08,-8.492786e-07
9.100000e-11,-3.090507e-08,-8.352693e-07
9.120000e-11,-3.797543e-08,-8.198187e-07
9.140000e-11,-3.910030e-08,-8.044995e-07
9.160000e-11,-3.448999e-08,-7.908358e-07
9.180000e-11,-2.487322e-08,-7.801524e-07
9.200000e-11,-1.139703e-08,-7.734478e-07
9.220000e-11,4.504289e-09,-7.713024e-07
9.240000e-11,2.125678e-08,-7.738309e-07
9.260000e-11,3.729635e-08,-7.806814e-07
9.280000e-11,5.120690e-08,-7.910806e-07
9.300000e-11,6.183619e-08,-8.039194e-07
9.320000e-11,6.838126e-08,-8.178701e-07
9.340000e-11,7.043878e-08,-8.315217e-07
9.360000e-11,6.801886e-08,-8.435220e-07
9.380000e-11,6.152359e-08,-8.527097e-07
9.400000e-11,5.169451e-08,-8.582264e-07
9.420000e-11,3.953479e-08,-8.595956e-07
9.440000e-11,2.621349e-08,-8.567637e-07
9.460000e-11,1.296009e-08,-8.500970e-07
9.480000e-11,9.577488e-10,-8.403382e-07
9.500000e-11,-8.756487e-09,-8.285256e-07
9.520000e-11,-1.537683e-08,-8.158840e-07
9.540000e-11,-1.839288e-08,-8.036984e-07
9.560000e-11,-1.762785e-08,-7.931840e-07
9.580000e-11,-1.324780e-08,-7.853650e-07
9.600000e-11,-5.741251e-09,-7.809745e-07
9.620000e-11,4.129222e-09,-7.803852e-07
9.640000e-11,1.539941e-08,-7.835787e-07
9.660000e-11,2.699367e-08,-7.901534e-07
9.680000e-11,3.782499e-08,-7.993737e-07
9.700000e-11,4.689585e-08,-8.102499e-07
9.720000e-11,5.339046e-08,-8.216453e-07
9.740000e-11,5.674972e-08,-8.323939e-07
9.760000e-11,5.672147e-08,-8.414211e-07
9.780000e-11,5.338110e-08,-8.478509e-07
9.800000e-11,4.712032e-08,-8.510914e-07
9.820000e-11,3.860510e-08,-8.508891e-07
9.840000e-11,2.870705e-08,-8.473468e-07
9.860000e-11,1.841498e-08,-8.409050e-07
9.880000e-11,8.735807e-09,-8.322882e-07
9.900000e-11,5.948772e-10,-8.224245e-07
9.920000e-11,-5.254186e-09,-8.123450e-07
9.940000e-11,-8.300879e-09,-8.030763e-07
9.960000e-11,-8.323442e-09,-7.955360e-07
