time,"V(B11|XBFR1)","V(B21|XBFR1)","I(B11|XBFR1)","I(B21|XBFR1)"
0.000000e+00,2.706455e-10,2.706455e-10,-8.631538e-11,-8.631538e-11
2.000000e-13,6.829227e-06,-1.001859e-05,1.672900e-06,-2.454815e-06
4.000000e-13,2.012501e-05,-3.136096e-05,2.214856e-06,-3.699690e-06
6.000000e-13,3.404223e-05,-5.922150e-05,9.608544e-07,-2.953772e-06
8.000000e-13,4.094961e-05,-8.712633e-05,-1.940783e-06,-2.629622e-07
1.000000e-12,3.434072e-05,-1.101433e-04,-5.774630e-06,3.788465e-06
1.200000e-12,1.234280e-05,-1.253381e-04,-9.071993e-06,8.676613e-06
1.400000e-12,-2.404802e-05,-1.348649e-04,-1.115373e-05,1.306722e-05
1.600000e-12,-7.135667e-05,-1.448574e-04,-1.126170e-05,1.634629e-05
1.800000e-12,-1.251819e-04,-1.632876e-04,-9.119099e-06,1.846569e-05
2.000000e-12,-1.822831e-04,-1.974678e-04,-4.949835e-06,1.993546e-05
2.200000e-12,-2.420941e-04,-2.516163e-04,7.156994e-07,2.163254e-05
2.400000e-12,-3.066810e-04,-3.247145e-04,7.355258e-06,2.445678e-05
2.600000e-12,-3.783852e-04,-4.086268e-04,1.476985e-05,2.892897e-05
2.800000e-12,-4.548032e-04,-4.868207e-04,2.323773e-05,3.486120e-05
3.000000e-12,-5.222286e-04,-5.356217e-04,3.332206e-05,4.128558e-05
3.200000e-12,-5.524597e-04,-5.309823e-04,4.524885e-05,4.682611e-05
3.400000e-12,-5.113193e-04,-4.596848e-04,5.816380e-05,5.041837e-05
3.600000e-12,-3.798758e-04,-3.269293e-04,6.997000e-05,5.184378e-05
3.800000e-12,-1.719713e-04,-1.543375e-04,7.809973e-05,5.162723e-05
4.000000e-12,6.848065e-05,2.810737e-05,8.071229e-05,5.048175e-05
4.200000e-12,2.873657e-04,1.902371e-04,7.748134e-05,4.884135e-05
4.400000e-12,4.433048e-04,3.082887e-04,6.953280e-05,4.681137e-05
4.600000e-12,5.209684e-04,3.699278e-04,5.872278e-05,4.443628e-05
4.800000e-12,5.295017e-04,3.761326e-04,4.681429e-05,4.195599e-05
5.000000e-12,4.908032e-04,3.386570e-04,3.501015e-05,3.982904e-05
5.200000e-12,4.270559e-04,2.745378e-04,2.393786e-05,3.854294e-05
5.400000e-12,3.537164e-04,2.005455e-04,1.390176e-05,3.837329e-05
5.600000e-12,2.785843e-04,1.294841e-04,5.155064e-06,3.924412e-05
5.800000e-12,2.043632e-04,6.864583e-05,-1.965822e-06,4.075398e-05
6.000000e-12,1.318406e-04,1.992643e-05,-7.074164e-06,4.234205e-05
6.200000e-12,6.196761e-05,-1.894749e-05,-9.867991e-06,4.351104e-05
6.400000e-12,-3.607997e-06,-5.251095e-05,-1.026603e-05,4.400932e-05
6.600000e-12,-6.312501e-05,-8.540136e-05,-8.460126e-06,4.389825e-05
6.800000e-12,-1.155978e-04,-1.204431e-04,-4.851000e-06,4.348131e-05
7.000000e-12,-1.612588e-04,-1.574615e-04,1.053158e-07,4.312854e-05
7.200000e-12,-2.011442e-04,-1.931679e-04,6.067683e-06,4.307331e-05
7.400000e-12,-2.358700e-04,-2.221943e-04,1.290827e-05,4.327537e-05
7.600000e-12,-2.640694e-04,-2.389848e-04,2.067254e-05,4.342411e-05
7.800000e-12,-2.812918e-04,-2.398151e-04,2.939328e-05,4.309871e-05
8.000000e-12,-2.802972e-04,-2.239655e-04,3.883497e-05,4.201805e-05
8.200000e-12,-2.533652e-04,-1.934377e-04,4.831385e-05,4.024389e-05
8.400000e-12,-1.961791e-04,-1.515468e-04,5.673542e-05,3.820395e-05
8.600000e-12,-1.113301e-04,-1.015128e-04,6.288120e-05,3.650105e-05
8.800000e-12,-8.963939e-06,-4.605429e-05,6.581430e-05,3.561720e-05
9.000000e-12,9.633446e-05,1.195304e-05,6.518310e-05,3.569645e-05
9.200000e-12,1.907554e-04,6.862072e-05,6.126217e-05,3.653416e-05
9.400000e-12,2.656600e-04,1.190252e-04,5.473310e-05,3.775954e-05
9.600000e-12,3.191308e-04,1.583845e-04,4.635201e-05,3.907966e-05
9.800000e-12,3.545918e-04,1.838588e-04,3.668459e-05,4.043459e-05
1.000000e-11,3.778615e-04,1.959060e-04,2.601769e-05,4.198698e-05
1.020000e-11,3.942428e-04,1.983767e-04,1.444612e-05,4.397124e-05
1.040000e-11,4.066209e-04,1.972456e-04,2.056597e-06,4.649238e-05
1.060000e-11,4.147685e-04,1.985154e-04,-1.088822e-05,4.937085e-05
1.080000e-11,4.156800e-04,2.060961e-04,-2.383855e-05,5.209513e-05
1.100000e-11,4.048040e-04,2.203818e-04,-3.595918e-05,5.390044e-05
1.120000e-11,3.781159e-04,2.379566e-04,-4.625848e-05,5.395909e-05
1.140000e-11,3.345847e-04,2.524789e-04,-5.383174e-05,5.164252e-05
1.160000e-11,2.778155e-04,2.564142e-04,-5.815783e-05,4.678537e-05
1.180000e-11,2.155017e-04,2.430595e-04,-5.933459e-05,3.985554e-05
1.200000e-11,1.565016e-04,2.083065e-04,-5.812898e-05,3.194158e-05
1.220000e-11,1.070262e-04,1.517722e-04,-5.578420e-05,2.452781e-05
1.240000e-11,6.806663e-05,7.708125e-05,-5.363755e-05,1.911535e-05
1.260000e-11,3.540658e-05,-8.784032e-06,-5.269473e-05,1.681791e-05
1.280000e-11,2.115191e-06,-9.691713e-05,-5.332816e-05,1.807561e-05
1.300000e-11,-3.779067e-05,-1.782068e-04,-5.520888e-05,2.257864e-05
1.320000e-11,-8.626343e-05,-2.447045e-04,-5.747510e-05,2.940112e-05
1.340000e-11,-1.400430e-04,-2.903346e-04,-5.904555e-05,3.726597e-05
1.360000e-11,-1.916744e-04,-3.112439e-04,-5.895036e-05,4.483838e-05
1.380000e-11,-2.319679e-04,-3.063292e-04,-5.658606e-05,5.098041e-05
1.400000e-11,-2.526402e-04,-2.779619e-04,-5.186221e-05,5.494675e-05
1.420000e-11,-2.481397e-04,-2.321193e-04,-4.524435e-05,5.651431e-05
1.440000e-11,-2.163944e-04,-1.770810e-04,-3.769671e-05,5.601736e-05
1.460000e-11,-1.588271e-04,-1.208637e-04,-3.051884e-05,5.424973e-05
1.480000e-11,-8.008921e-05,-6.864388e-05,-2.508477e-05,5.222955e-05
1.500000e-11,1.231734e-05,-2.157002e-05,-2.253106e-05,5.088245e-05
1.520000e-11,1.085991e-04,2.243300e-05,-2.347238e-05,5.074561e-05
1.540000e-11,1.974697e-04,6.631951e-05,-2.782368e-05,5.179331e-05
1.560000e-11,2.672243e-04,1.112024e-04,-3.477662e-05,5.343986e-05
1.580000e-11,3.073663e-04,1.545119e-04,-4.294306e-05,5.471919e-05
1.600000e-11,3.111540e-04,1.898341e-04,-5.065910e-05,5.460097e-05
1.620000e-11,2.785510e-04,2.084732e-04,-5.641405e-05,5.237358e-05
1.640000e-11,2.175986e-04,2.020896e-04,-5.930026e-05,4.798443e-05
1.660000e-11,1.422896e-04,1.654687e-04,-5.930743e-05,4.219781e-05
1.680000e-11,6.741131e-05,9.868073e-05,-5.730168e-05,3.646233e-05
1.700000e-11,3.208608e-06,8.259627e-06,-5.465723e-05,3.248541e-05
1.720000e-11,-4.716694e-05,-9.280664e-05,-5.267376e-05,3.163894e-05
1.740000e-11,-8.630377e-05,-1.865871e-04,-5.201875e-05,3.440634e-05
1.760000e-11,-1.183792e-04,-2.536784e-04,-5.243914e-05,4.009685e-05
1.780000e-11,-1.446994e-04,-2.787580e-04,-5.289368e-05,4.699249e-05
1.800000e-11,-1.614217e-04,-2.567487e-04,-5.208746e-05,5.294505e-05
1.820000e-11,-1.606419e-04,-1.960070e-04,-4.918678e-05,5.621637e-05
1.840000e-11,-1.341801e-04,-1.154207e-04,-4.436361e-05,5.617761e-05
1.860000e-11,-7.818319e-05,-3.635783e-05,-3.887610e-05,5.351545e-05
1.880000e-11,3.378829e-06,2.589654e-05,-3.461698e-05,4.984008e-05
1.900000e-11,9.758872e-05,6.657395e-05,-3.331629e-05,4.688994e-05
1.920000e-11,1.844823e-04,8.998977e-05,-3.574448e-05,4.571322e-05
1.940000e-11,2.421969e-04,1.038416e-04,-4.127871e-05,4.621078e-05
1.960000e-11,2.546260e-04,1.128434e-04,-4.806986e-05,4.726423e-05
1.980000e-11,2.186669e-04,1.152599e-04,-5.379103e-05,4.739793e-05
2.000000e-11,1.465004e-04,1.040120e-04,-5.663651e-05,4.563857e-05
2.020000e-11,5.209205e-05,7.984893e-05,-5.813349e-05,4.417483e-05
2.040000e-11,-3.883341e-05,3.826649e-05,-5.610122e-05,4.119441e-05
2.060000e-11,-1.046713e-04,-2.092785e-05,-5.189006e-05,3.808302e-05
2.080000e-11,-1.367534e-04,-8.869234e-05,-4.761682e-05,3.668729e-05
2.100000e-11,-1.394880e-04,-1.479021e-04,-4.489081e-05,3.810539e-05
2.120000e-11,-1.243568e-04,-1.795016e-04,-4.416612e-05,4.211745e-05
2.140000e-11,-1.022258e-04,-1.710677e-04,-4.473907e-05,4.727591e-05
2.160000e-11,-7.818530e-05,-1.233506e-04,-4.534367e-05,5.161394e-05
2.180000e-11,-5.101403e-05,-5.067316e-05,-4.497894e-05,5.359052e-05
2.200000e-11,-1.667754e-05,2.532328e-05,-4.349980e-05,5.276936e-05
2.220000e-11,2.663050e-05,8.490028e-05,-4.167183e-05,4.990548e-05
2.240000e-11,7.480545e-05,1.173365e-04,-4.070337e-05,4.645284e-05
2.260000e-11,1.175203e-04,1.227726e-04,-4.154013e-05,4.379950e-05
2.280000e-11,1.417085e-04,1.089453e-04,-4.431016e-05,4.263908e-05
2.300000e-11,1.374229e-04,8.549701e-05,-4.820900e-05,4.277599e-05
2.320000e-11,1.031068e-04,5.915303e-05,-5.187353e-05,4.341195e-05
2.340000e-11,4.718083e-05,3.193076e-05,-5.403013e-05,4.370705e-05
2.360000e-11,-1.515095e-05,2.624039e-06,-5.406610e-05,4.328326e-05
2.380000e-11,-6.807384e-05,-2.987284e-05,-5.223953e-05,4.240468e-05
2.400000e-11,-1.009177e-04,-6.355846e-05,-4.945879e-05,4.177028e-05
2.420000e-11,-1.107807e-04,-9.241470e-05,-4.679134e-05,4.206884e-05
2.440000e-11,-1.014155e-04,-1.082176e-04,-4.497762e-05,4.355743e-05
2.460000e-11,-7.975921e-05,-1.042479e-04,-4.418770e-05,4.589137e-05
2.480000e-11,-5.230861e-05,-7.894299e-05,-4.410336e-05,4.828286e-05
2.500000e-11,-2.307624e-05,-3.739509e-05,-4.423047e-05,4.988470e-05
2.520000e-11,6.313731e-06,1.023318e-05,-4.423920e-05,5.018353e-05
2.540000e-11,3.501788e-05,5.251760e-05,-4.414299e-05,4.920114e-05
2.560000e-11,6.114804e-05,8.077890e-05,-4.423963e-05,4.742371e-05
2.580000e-11,8.096950e-05,9.140269e-05,-4.487648e-05,4.552730e-05
2.600000e-11,8.970757e-05,8.575113e-05,-4.619185e-05,4.406236e-05
2.620000e-11,8.360722e-05,6.826364e-05,-4.798268e-05,4.325724e-05
2.640000e-11,6.211516e-05,4.406388e-05,-4.976717e-05,4.301664e-05
2.660000e-11,2.889298e-05,1.728537e-05,-5.099887e-05,4.307880e-05
2.680000e-11,-9.005142e-06,-9.341420e-06,-5.131009e-05,4.321842e-05
2.700000e-11,-4.341331e-05,-3.387386e-05,-5.065811e-05,4.337615e-05
2.720000e-11,-6.764752e-05,-5.424587e-05,-4.931174e-05,4.365502e-05
2.740000e-11,-7.823047e-05,-6.783195e-05,-4.770510e-05,4.420699e-05
2.760000e-11,-7.518070e-05,-7.187886e-05,-4.624833e-05,4.509192e-05
2.780000e-11,-6.109140e-05,-6.462064e-05,-4.519175e-05,4.619711e-05
2.800000e-11,-3.972153e-05,-4.643074e-05,-4.459542e-05,4.726180e-05
2.820000e-11,-1.483519e-05,-2.028949e-05,-4.439251e-05,4.798737e-05
2.840000e-11,1.032641e-05,8.788374e-06,-4.448816e-05,4.816833e-05
2.860000e-11,3.300470e-05,3.514591e-05,-4.482939e-05,4.777428e-05
2.880000e-11,5.068228e-05,5.405841e-05,-4.541154e-05,4.694714e-05
2.900000e-11,6.104365e-05,6.282753e-05,-4.623129e-05,4.592626e-05
2.920000e-11,6.233070e-05,6.105916e-05,-4.722815e-05,4.494883e-05
2.940000e-11,5.396449e-05,5.022416e-05,-4.825881e-05,4.417704e-05
2.980000e-11,1.450714e-05,1.200730e-05,-4.963789e-05,4.345587e-05
3.000000e-11,-9.651511e-06,-9.470545e-06,-4.969147e-05,4.348614e-05
3.020000e-11,-3.113512e-05,-2.877198e-05,-4.929415e-05,4.375182e-05
3.040000e-11,-4.646150e-05,-4.337970e-05,-4.855883e-05,4.423572e-05
3.060000e-11,-5.360400e-05,-5.123878e-05,-4.765425e-05,4.489754e-05
3.080000e-11,-5.215318e-05,-5.112260e-05,-4.674889e-05,4.565295e-05
3.100000e-11,-4.306305e-05,-4.302472e-05,-4.597330e-05,4.637617e-05
3.120000e-11,-2.821094e-05,-2.834719e-05,-4.541108e-05,4.693006e-05
3.140000e-11,-9.987507e-06,-9.713714e-06,-4.511028e-05,4.720949e-05
3.160000e-11,8.988476e-06,9.586712e-06,-4.509698e-05,4.717531e-05
3.180000e-11,2.607223e-05,2.633715e-05,-4.537688e-05,4.686189e-05
3.200000e-11,3.882029e-05,3.804631e-05,-4.592328e-05,4.635674e-05
3.220000e-11,4.531534e-05,4.331935e-05,-4.666300e-05,4.576549e-05
3.240000e-11,4.455237e-05,4.189965e-05,-4.747540e-05,4.518130e-05
3.260000e-11,3.674316e-05,3.447885e-05,-4.821322e-05,4.467184e-05
3.280000e-11,2.337020e-05,2.243004e-05,-4.874005e-05,4.428404e-05
3.300000e-11,6.904717e-06,7.579613e-06,-4.896874e-05,4.405584e-05
3.320000e-11,-9.746368e-06,-7.961114e-06,-4.888315e-05,4.402117e-05
3.340000e-11,-2.387620e-05,-2.196338e-05,-4.853401e-05,4.420149e-05
3.360000e-11,-3.348373e-05,-3.232400e-05,-4.801335e-05,4.458804e-05
3.380000e-11,-3.751836e-05,-3.740472e-05,-4.742183e-05,4.512748e-05
3.400000e-11,-3.586283e-05,-3.639593e-05,-4.684452e-05,4.572344e-05
3.420000e-11,-2.915546e-05,-2.956486e-05,-4.634367e-05,4.625797e-05
3.440000e-11,-1.857846e-05,-1.825562e-05,-4.596531e-05,4.662558e-05
3.460000e-11,-5.690224e-06,-4.599860e-06,-4.574892e-05,4.676479e-05
3.480000e-11,7.699817e-06,8.977932e-06,-4.572905e-05,4.667287e-05
3.500000e-11,1.967287e-05,2.028968e-05,-4.592501e-05,4.639834e-05
3.520000e-11,2.841989e-05,2.777648e-05,-4.632407e-05,4.601678e-05
3.540000e-11,3.254472e-05,3.067386e-05,-4.686970e-05,4.560324e-05
3.560000e-11,3.138065e-05,2.896709e-05,-4.746530e-05,4.521426e-05
3.580000e-11,2.519843e-05,2.322975e-05,-4.799561e-05,4.488519e-05
3.600000e-11,1.519718e-05,1.444991e-05,-4.835853e-05,4.463931e-05
3.620000e-11,3.248333e-06,3.901198e-06,-4.849401e-05,4.449855e-05
3.640000e-11,-8.533110e-06,-6.950538e-06,-4.839762e-05,4.448643e-05
3.660000e-11,-1.824538e-05,-1.655849e-05,-4.811443e-05,4.461993e-05
3.680000e-11,-2.454122e-05,-2.347328e-05,-4.771778e-05,4.489498e-05
3.700000e-11,-2.677595e-05,-2.658987e-05,-4.728447e-05,4.527545e-05
3.720000e-11,-2.497396e-05,-2.540174e-05,-4.687706e-05,4.569417e-05
3.740000e-11,-1.968844e-05,-2.016300e-05,-4.653876e-05,4.606816e-05
3.760000e-11,-1.184084e-05,-1.187413e-05,-4.629824e-05,4.632265e-05
3.780000e-11,-2.590675e-06,-2.071157e-06,-4.617715e-05,4.641328e-05
3.800000e-11,6.765254e-06,7.520719e-06,-4.619245e-05,4.633693e-05
3.820000e-11,1.490115e-05,1.535490e-05,-4.635115e-05,4.612745e-05
3.840000e-11,2.061372e-05,2.033980e-05,-4.664053e-05,4.583979e-05
3.860000e-11,2.301784e-05,2.196225e-05,-4.702116e-05,4.553101e-05
3.880000e-11,2.174079e-05,2.026468e-05,-4.742904e-05,4.524654e-05
3.900000e-11,1.704139e-05,1.573265e-05,-4.778861e-05,4.501614e-05
3.920000e-11,9.790779e-06,9.159488e-06,-4.803242e-05,4.485769e-05
3.940000e-11,1.299450e-06,1.529550e-06,-4.811945e-05,4.478341e-05
3.960000e-11,-6.963811e-06,-6.077083e-06,-4.804466e-05,4.480259e-05
3.980000e-11,-1.367406e-05,-1.258270e-05,-4.783657e-05,4.491866e-05
4.000000e-11,-1.788507e-05,-1.703682e-05,-4.754505e-05,4.512248e-05
4.020000e-11,-1.914490e-05,-1.876673e-05,-4.722578e-05,4.538719e-05
4.040000e-11,-1.749139e-05,-1.751986e-05,-4.692765e-05,4.566914e-05
4.060000e-11,-1.336613e-05,-1.354456e-05,-4.668689e-05,4.591653e-05
4.080000e-11,-7.497017e-06,-7.565293e-06,-4.652730e-05,4.608287e-05
4.100000e-11,-7.841024e-07,-6.432262e-07,-4.646315e-05,4.613973e-05
4.120000e-11,5.802555e-06,6.042764e-06,-4.650062e-05,4.608364e-05
4.140000e-11,1.132407e-05,1.143051e-05,-4.663638e-05,4.593456e-05
4.160000e-11,1.498531e-05,1.475916e-05,-4.685418e-05,4.572764e-05
4.180000e-11,1.625548e-05,1.566445e-05,-4.712301e-05,4.550233e-05
4.200000e-11,1.497193e-05,1.418189e-05,-4.739967e-05,4.529341e-05
4.220000e-11,1.139050e-05,1.068376e-05,-4.763651e-05,4.512669e-05
4.240000e-11,6.153202e-06,5.785393e-06,-4.779238e-05,4.501886e-05
4.260000e-11,1.693959e-07,2.470379e-07,-4.784254e-05,4.497937e-05
4.280000e-11,-5.562346e-06,-5.119432e-06,-4.778404e-05,4.501153e-05
4.300000e-11,-1.014355e-05,-9.543063e-06,-4.763464e-05,4.511169e-05
4.320000e-11,-1.292749e-05,-1.239031e-05,-4.742647e-05,4.526732e-05
4.340000e-11,-1.360226e-05,-1.325992e-05,-4.719726e-05,4.545602e-05
4.360000e-11,-1.220070e-05,-1.205732e-05,-4.698260e-05,4.564756e-05
4.380000e-11,-9.053762e-06,-9.023066e-06,-4.681110e-05,4.580931e-05
4.400000e-11,-4.712450e-06,-4.697422e-06,-4.670260e-05,4.591353e-05
4.420000e-11,1.413862e-07,1.785633e-07,-4.666814e-05,4.594406e-05
4.440000e-11,4.785337e-06,4.803483e-06,-4.671007e-05,4.589961e-05
4.460000e-11,8.546185e-06,8.461838e-06,-4.682160e-05,4.579294e-05
4.480000e-11,1.088801e-05,1.064090e-05,-4.698640e-05,4.564645e-05
4.500000e-11,1.149131e-05,1.109603e-05,-4.717935e-05,4.548626e-05
4.520000e-11,1.030805e-05,9.860589e-06,-4.736965e-05,4.533701e-05
4.540000e-11,7.575226e-06,7.211682e-06,-4.752619e-05,4.521860e-05
4.560000e-11,3.776283e-06,3.608757e-06,-4.762379e-05,4.514493e-05
4.580000e-11,-4.463437e-07,-3.801555e-07,-4.764850e-05,4.512369e-05
4.600000e-11,-4.408826e-06,-4.156262e-06,-4.760003e-05,4.515627e-05
4.620000e-11,-7.505982e-06,-7.168250e-06,-4.749082e-05,4.523743e-05
4.640000e-11,-9.306996e-06,-8.987194e-06,-4.734233e-05,4.535505e-05
4.660000e-11,-9.609934e-06,-9.370176e-06,-4.718002e-05,4.549094e-05
4.680000e-11,-8.451629e-06,-8.300409e-06,-4.702874e-05,4.562327e-05
4.700000e-11,-6.080476e-06,-5.991698e-06,-4.690933e-05,4.573038e-05
4.720000e-11,-2.904465e-06,-2.851339e-06,-4.683678e-05,4.579527e-05
4.740000e-11,5.741289e-07,5.935786e-07,-4.681924e-05,4.580895e-05
4.760000e-11,3.829714e-06,3.790837e-06,-4.685752e-05,4.577201e-05
4.780000e-11,6.384874e-06,6.257397e-06,-4.694492e-05,4.569367e-05
4.800000e-11,7.876921e-06,7.653595e-06,-4.706759e-05,4.558908e-05
4.820000e-11,8.111470e-06,7.825176e-06,-4.720605e-05,4.547594e-05
4.840000e-11,7.092922e-06,6.810793e-06,-4.733812e-05,4.537130e-05
4.860000e-11,5.023129e-06,4.820426e-06,-4.744274e-05,4.528945e-05
4.880000e-11,2.265283e-06,2.193531e-06,-4.750394e-05,4.524064e-05
4.900000e-11,-7.213296e-07,-6.547074e-07,-4.751377e-05,4.523041e-05
4.920000e-11,-3.462197e-06,-3.292755e-06,-4.747342e-05,4.525920e-05
4.940000e-11,-5.546716e-06,-5.332775e-06,-4.739226e-05,4.532210e-05
4.960000e-11,-6.689972e-06,-6.485749e-06,-4.728539e-05,4.540913e-05
4.980000e-11,-6.767663e-06,-6.604335e-06,-4.717052e-05,4.550641e-05
5.000000e-11,-5.822174e-06,-5.705278e-06,-4.706495e-05,4.559825e-05
5.020000e-11,-4.043840e-06,-3.965125e-06,-4.698339e-05,4.566995e-05
5.040000e-11,-1.734249e-06,-1.688047e-06,-4.693634e-05,4.571060e-05
5.060000e-11,7.414885e-07,7.487106e-07,-4.692924e-05,4.571509e-05
5.080000e-11,3.007739e-06,2.960480e-06,-4.696194e-05,4.568472e-05
5.100000e-11,4.731494e-06,4.618271e-06,-4.702863e-05,4.562644e-05
5.120000e-11,5.670051e-06,5.497405e-06,-4.711849e-05,4.555103e-05
5.140000e-11,5.706646e-06,5.504572e-06,-4.721708e-05,4.547087e-05
5.160000e-11,4.867367e-06,4.681957e-06,-4.730863e-05,4.539793e-05
5.180000e-11,3.314851e-06,3.191494e-06,-4.737880e-05,4.534226e-05
5.200000e-11,1.318608e-06,1.284485e-06,-4.741720e-05,4.531097e-05
5.220000e-11,-7.927997e-07,-7.379949e-07,-4.741919e-05,4.530763e-05
5.240000e-11,-2.688088e-06,-2.569085e-06,-4.738639e-05,4.533196e-05
5.260000e-11,-4.086820e-06,-3.939991e-06,-4.732591e-05,4.537972e-05
5.280000e-11,-4.800461e-06,-4.658706e-06,-4.724864e-05,4.544321e-05
5.300000e-11,-4.755054e-06,-4.638055e-06,-4.716716e-05,4.551223e-05
5.320000e-11,-3.994278e-06,-3.907858e-06,-4.709370e-05,4.557572e-05
5.340000e-11,-2.665235e-06,-2.608009e-06,-4.703854e-05,4.562372e-05
5.360000e-11,-9.912868e-07,-9.629352e-07,-4.700883e-05,4.564914e-05
5.380000e-11,7.632968e-07,7.579644e-07,-4.700793e-05,4.564897e-05
5.400000e-11,2.332381e-06,2.286039e-06,-4.703504e-05,4.562464e-05
5.420000e-11,3.486305e-06,3.396337e-06,-4.708535e-05,4.558132e-05
5.440000e-11,4.064916e-06,3.940207e-06,-4.715060e-05,4.552681e-05
5.460000e-11,4.000550e-06,3.863025e-06,-4.722033e-05,4.546992e-05
5.480000e-11,3.326854e-06,3.206080e-06,-4.728349e-05,4.541916e-05
5.500000e-11,2.171225e-06,2.094438e-06,-4.733037e-05,4.538157e-05
5.520000e-11,7.317243e-07,7.142055e-07,-4.735421e-05,4.536200e-05
5.540000e-11,-7.573943e-07,-7.169378e-07,-4.735229e-05,4.536260e-05
5.560000e-11,-2.064903e-06,-1.982085e-06,-4.732623e-05,4.538264e-05
5.580000e-11,-2.999153e-06,-2.896528e-06,-4.728135e-05,4.541860e-05
5.600000e-11,-3.435700e-06,-3.334332e-06,-4.722553e-05,4.546462e-05
5.620000e-11,-3.332177e-06,-3.246191e-06,-4.716778e-05,4.551332e-05
5.640000e-11,-2.729516e-06,-2.665440e-06,-4.711677e-05,4.555700e-05
5.660000e-11,-1.740912e-06,-1.700753e-06,-4.707968e-05,4.558895e-05
5.680000e-11,-5.314538e-07,-5.165269e-07,-4.706133e-05,4.560458e-05
5.700000e-11,7.081582e-07,6.954932e-07,-4.706369e-05,4.560218e-05
5.720000e-11,1.790198e-06,1.747998e-06,-4.708567e-05,4.558303e-05
5.740000e-11,2.557256e-06,2.487440e-06,-4.712336e-05,4.555100e-05
5.760000e-11,2.904799e-06,2.815993e-06,-4.717055e-05,4.551168e-05
5.780000e-11,2.795684e-06,2.703177e-06,-4.721968e-05,4.547139e-05
5.800000e-11,2.264194e-06,2.186405e-06,-4.726309e-05,4.543617e-05
5.820000e-11,1.408691e-06,1.361560e-06,-4.729421e-05,4.541094e-05
5.840000e-11,3.740008e-07,3.659252e-07,-4.730869e-05,4.539897e-05
5.860000e-11,-6.733029e-07,-6.436826e-07,-4.730499e-05,4.540149e-05
5.880000e-11,-1.572178e-06,-1.514538e-06,-4.728458e-05,4.541763e-05
5.900000e-11,-2.192079e-06,-2.120336e-06,-4.725143e-05,4.544452e-05
5.920000e-11,-2.451530e-06,-2.379267e-06,-4.721124e-05,4.547776e-05
5.940000e-11,-2.327797e-06,-2.265205e-06,-4.717044e-05,4.551203e-05
5.960000e-11,-1.856992e-06,-1.810191e-06,-4.713516e-05,4.554199e-05
