time,"I(RIN1)","I(RIN2)","I(LOUT)"
0.000000e+00,-2.877295e-09,-2.877295e-09,1.614412e-07
2.000000e-13,-9.918346e-07,-9.918346e-07,1.839688e-07
4.000000e-13,-1.998338e-06,-1.998338e-06,2.247524e-07
6.000000e-13,-2.999434e-06,-2.999434e-06,2.896963e-07
8.000000e-13,-3.999444e-06,-3.999444e-06,3.862644e-07
1.000000e-12,-4.998852e-06,-4.998852e-06,5.248584e-07
1.200000e-12,-5.013469e-06,-5.013469e-06,7.201190e-07
1.400000e-12,-5.011957e-06,-5.011957e-06,9.925102e-07
1.600000e-12,-5.018188e-06,-5.018188e-06,1.370460e-06
1.800000e-12,-5.029477e-06,-5.029477e-06,1.893284e-06
2.000000e-12,-5.047612e-06,-5.047612e-06,2.615020e-06
2.200000e-12,-5.075263e-06,-5.075263e-06,3.609189e-06
2.400000e-12,-5.115761e-06,-5.115761e-06,4.974167e-06
2.600000e-12,-5.172800e-06,-5.172800e-06,6.838191e-06
2.800000e-12,-5.249588e-06,-5.249588e-06,9.361560e-06
3.000000e-12,-5.347085e-06,-5.347085e-06,1.273092e-05
3.200000e-12,-5.460567e-06,-5.460567e-06,1.713588e-05
3.400000e-12,-5.573377e-06,-5.573377e-06,2.271313e-05
3.600000e-12,-5.650182e-06,-5.650182e-06,2.944374e-05
3.800000e-12,-5.642440e-06,-5.642440e-06,3.701290e-05
4.000000e-12,-5.517006e-06,-5.517006e-06,4.470084e-05
4.200000e-12,-5.283885e-06,-5.283885e-06,5.143272e-05
4.400000e-12,-4.993196e-06,-4.993196e-06,5.605018e-05
4.600000e-12,-4.712518e-06,-4.712518e-06,5.768984e-05
4.800000e-12,-4.501864e-06,-4.501864e-06,5.606969e-05
5.000000e-12,-4.392620e-06,-4.392620e-06,5.155141e-05
5.200000e-12,-4.380228e-06,-4.380228e-06,4.496816e-05
5.400000e-12,-4.435437e-06,-4.435437e-06,3.731931e-05
5.600000e-12,-4.523686e-06,-4.523686e-06,2.948473e-05
5.800000e-12,-4.619186e-06,-4.619186e-06,2.206669e-05
6.000000e-12,-4.709120e-06,-4.709120e-06,1.537607e-05
6.200000e-12,-4.790793e-06,-4.790793e-06,9.511504e-06
6.400000e-12,-4.866499e-06,-4.866499e-06,4.463107e-06
6.600000e-12,-4.939524e-06,-4.939524e-06,1.926163e-07
6.800000e-12,-5.012463e-06,-5.012463e-06,-3.326174e-06
7.000000e-12,-5.087182e-06,-5.087182e-06,-6.096830e-06
7.200000e-12,-5.165033e-06,-5.165033e-06,-8.101551e-06
7.400000e-12,-5.246391e-06,-5.246391e-06,-9.302760e-06
7.600000e-12,-5.329341e-06,-5.329341e-06,-9.643635e-06
7.800000e-12,-5.408232e-06,-5.408232e-06,-9.051578e-06
8.000000e-12,-5.473172e-06,-5.473172e-06,-7.448262e-06
8.200000e-12,-5.510224e-06,-5.510224e-06,-4.766592e-06
8.400000e-12,-5.501467e-06,-5.501467e-06,-9.712223e-07
8.600000e-12,-5.429534e-06,-5.429534e-06,3.921777e-06
8.800000e-12,-5.290665e-06,-5.290665e-06,9.827536e-06
9.000000e-12,-5.104023e-06,-5.104023e-06,1.657375e-05
9.200000e-12,-4.905636e-06,-4.905636e-06,2.387423e-05
9.400000e-12,-4.733541e-06,-4.733541e-06,3.129116e-05
9.600000e-12,-4.614680e-06,-4.614680e-06,3.820388e-05
9.800000e-12,-4.558549e-06,-4.558549e-06,4.384314e-05
1.000000e-11,-4.558247e-06,-4.558247e-06,4.744279e-05
1.020000e-11,-4.597071e-06,-4.597071e-06,4.846155e-05
1.040000e-11,-4.656751e-06,-4.656751e-06,4.674908e-05
1.060000e-11,-4.723322e-06,-4.723322e-06,4.256616e-05
1.080000e-11,-4.788981e-06,-4.788981e-06,3.646276e-05
1.100000e-11,-4.850741e-06,-4.850741e-06,2.909078e-05
1.120000e-11,-4.907917e-06,-4.907917e-06,2.104987e-05
1.140000e-11,-4.960210e-06,-4.960210e-06,1.283291e-05
1.160000e-11,-5.006952e-06,-5.006952e-06,4.866789e-06
1.180000e-11,-5.047049e-06,-5.047049e-06,-2.429598e-06
1.200000e-11,-5.079004e-06,-5.079004e-06,-8.652317e-06
1.220000e-11,-5.100951e-06,-5.100951e-06,-1.348153e-05
1.240000e-11,-5.110983e-06,-5.110983e-06,-1.674097e-05
1.260000e-11,-5.107962e-06,-5.107962e-06,-1.840044e-05
1.280000e-11,-5.092372e-06,-5.092372e-06,-1.853310e-05
1.300000e-11,-5.066428e-06,-5.066428e-06,-1.726671e-05
1.320000e-11,-5.033220e-06,-5.033220e-06,-1.476231e-05
1.340000e-11,-4.995458e-06,-4.995458e-06,-1.123363e-05
1.360000e-11,-4.954714e-06,-4.954714e-06,-6.988093e-06
1.380000e-11,-4.911571e-06,-4.911571e-06,-2.440963e-06
1.400000e-11,-4.866545e-06,-4.866545e-06,1.932331e-06
1.420000e-11,-4.821216e-06,-4.821216e-06,5.685258e-06
1.440000e-11,-4.778903e-06,-4.778903e-06,8.474839e-06
1.460000e-11,-4.744368e-06,-4.744368e-06,1.008809e-05
1.480000e-11,-4.722522e-06,-4.722522e-06,1.043108e-05
1.500000e-11,-4.716795e-06,-4.716795e-06,9.513677e-06
1.520000e-11,-4.728125e-06,-4.728125e-06,7.453766e-06
1.540000e-11,-4.755100e-06,-4.755100e-06,4.496403e-06
1.560000e-11,-4.794968e-06,-4.794968e-06,1.016555e-06
1.580000e-11,-4.844732e-06,-4.844732e-06,-2.524452e-06
1.600000e-11,-4.901726e-06,-4.901726e-06,-5.661840e-06
1.620000e-11,-4.963574e-06,-4.963574e-06,-8.009061e-06
1.640000e-11,-5.027866e-06,-5.027866e-06,-9.303692e-06
1.660000e-11,-5.091845e-06,-5.091845e-06,-9.416324e-06
1.680000e-11,-5.152234e-06,-5.152234e-06,-8.345928e-06
1.700000e-11,-5.205153e-06,-5.205153e-06,-6.222984e-06
1.720000e-11,-5.246112e-06,-5.246112e-06,-3.318127e-06
1.740000e-11,-5.270344e-06,-5.270344e-06,-2.973557e-08
1.760000e-11,-5.273776e-06,-5.273776e-06,3.172650e-06
1.780000e-11,-5.254545e-06,-5.254545e-06,5.837436e-06
1.800000e-11,-5.214114e-06,-5.214114e-06,7.612826e-06
1.820000e-11,-5.157040e-06,-5.157040e-06,8.291074e-06
1.840000e-11,-5.089501e-06,-5.089501e-06,7.816707e-06
1.860000e-11,-5.017675e-06,-5.017675e-06,6.280681e-06
1.880000e-11,-4.947004e-06,-4.947004e-06,3.915475e-06
1.900000e-11,-4.882511e-06,-4.882511e-06,1.081612e-06
1.920000e-11,-4.829499e-06,-4.829499e-06,-1.777410e-06
1.940000e-11,-4.793570e-06,-4.793570e-06,-4.215679e-06
1.960000e-11,-4.779406e-06,-4.779406e-06,-5.872496e-06
1.980000e-11,-4.788921e-06,-4.788921e-06,-6.531863e-06
2.000000e-11,-4.820276e-06,-4.820276e-06,-6.142035e-06
2.020000e-11,-4.868516e-06,-4.868516e-06,-4.808662e-06
2.040000e-11,-4.926994e-06,-4.926994e-06,-2.778022e-06
2.060000e-11,-4.988806e-06,-4.988806e-06,-4.051572e-07
2.080000e-11,-5.047979e-06,-5.047979e-06,1.904906e-06
2.100000e-11,-5.099573e-06,-5.099573e-06,3.775158e-06
2.120000e-11,-5.139322e-06,-5.139322e-06,4.927741e-06
2.140000e-11,-5.163563e-06,-5.163563e-06,5.224440e-06
2.160000e-11,-5.169835e-06,-5.169835e-06,4.672698e-06
2.180000e-11,-5.157794e-06,-5.157794e-06,3.409546e-06
2.200000e-11,-5.129631e-06,-5.129631e-06,1.675162e-06
2.220000e-11,-5.089562e-06,-5.089562e-06,-2.235001e-07
2.240000e-11,-5.042743e-06,-5.042743e-06,-1.963096e-06
2.260000e-11,-4.994303e-06,-4.994303e-06,-3.262704e-06
2.280000e-11,-4.948927e-06,-4.948927e-06,-3.933973e-06
2.300000e-11,-4.910819e-06,-4.910819e-06,-3.907277e-06
2.320000e-11,-4.883592e-06,-4.883592e-06,-3.231407e-06
2.340000e-11,-4.869833e-06,-4.869833e-06,-2.055142e-06
2.360000e-11,-4.870500e-06,-4.870500e-06,-5.990485e-07
2.380000e-11,-4.884646e-06,-4.884646e-06,8.801932e-07
2.400000e-11,-4.909718e-06,-4.909718e-06,2.132610e-06
2.420000e-11,-4.942248e-06,-4.942248e-06,2.958875e-06
2.440000e-11,-4.978530e-06,-4.978530e-06,3.243918e-06
2.460000e-11,-5.014984e-06,-5.014984e-06,2.971264e-06
2.480000e-11,-5.048241e-06,-5.048241e-06,2.217593e-06
2.500000e-11,-5.075216e-06,-5.075216e-06,1.133351e-06
2.520000e-11,-5.093346e-06,-5.093346e-06,-8.470051e-08
2.540000e-11,-5.100994e-06,-5.100994e-06,-1.226086e-06
2.560000e-11,-5.097772e-06,-5.097772e-06,-2.101776e-06
2.580000e-11,-5.084611e-06,-5.084611e-06,-2.576219e-06
2.600000e-11,-5.063525e-06,-5.063525e-06,-2.588698e-06
2.620000e-11,-5.037212e-06,-5.037212e-06,-2.159216e-06
2.640000e-11,-5.008678e-06,-5.008678e-06,-1.379622e-06
2.660000e-11,-4.980933e-06,-4.980933e-06,-3.942572e-07
2.680000e-11,-4.956743e-06,-4.956743e-06,6.254658e-07
2.700000e-11,-4.938387e-06,-4.938387e-06,1.509410e-06
2.720000e-11,-4.927410e-06,-4.927410e-06,2.116631e-06
2.740000e-11,-4.924462e-06,-4.924462e-06,2.358118e-06
2.760000e-11,-4.929265e-06,-4.929265e-06,2.209531e-06
2.780000e-11,-4.940737e-06,-4.940737e-06,1.711685e-06
2.800000e-11,-4.957219e-06,-4.957219e-06,9.599695e-07
2.820000e-11,-4.976722e-06,-4.976722e-06,8.606086e-08
2.840000e-11,-4.997154e-06,-4.997154e-06,-7.645753e-07
2.860000e-11,-5.016510e-06,-5.016510e-06,-1.456306e-06
2.880000e-11,-5.033036e-06,-5.033036e-06,-1.884814e-06
2.900000e-11,-5.045364e-06,-5.045364e-06,-1.992836e-06
2.920000e-11,-5.052627e-06,-5.052627e-06,-1.777224e-06
2.940000e-11,-5.054505e-06,-5.054505e-06,-1.286451e-06
2.980000e-11,-5.043458e-06,-5.043458e-06,1.384349e-07
3.000000e-11,-5.032255e-06,-5.032255e-06,8.388897e-07
3.020000e-11,-5.018862e-06,-5.018862e-06,1.385086e-06
3.040000e-11,-5.004603e-06,-5.004603e-06,1.699996e-06
3.060000e-11,-4.990757e-06,-4.990757e-06,1.746631e-06
3.080000e-11,-4.978461e-06,-4.978461e-06,1.531622e-06
3.100000e-11,-4.968638e-06,-4.968638e-06,1.101533e-06
3.120000e-11,-4.961953e-06,-4.961953e-06,5.331636e-07
3.140000e-11,-4.958787e-06,-4.958787e-06,-8.006916e-08
3.160000e-11,-4.959237e-06,-4.959237e-06,-6.433356e-07
3.180000e-11,-4.963124e-06,-4.963124e-06,-1.074930e-06
3.200000e-11,-4.970029e-06,-4.970029e-06,-1.317992e-06
3.220000e-11,-4.979327e-06,-4.979327e-06,-1.347673e-06
3.240000e-11,-4.990239e-06,-4.990239e-06,-1.172806e-06
3.260000e-11,-5.001880e-06,-5.001880e-06,-8.322193e-07
3.280000e-11,-5.013303e-06,-5.013303e-06,-3.867578e-07
3.300000e-11,-5.023558e-06,-5.023558e-06,9.135492e-08
3.320000e-11,-5.031745e-06,-5.031745e-06,5.300512e-07
3.340000e-11,-5.037097e-06,-5.037097e-06,8.681116e-07
3.360000e-11,-5.039052e-06,-5.039052e-06,1.063486e-06
3.380000e-11,-5.037331e-06,-5.037331e-06,1.098108e-06
3.400000e-11,-5.031991e-06,-5.031991e-06,9.787043e-07
3.420000e-11,-5.023443e-06,-5.023443e-06,7.338163e-07
3.440000e-11,-5.012438e-06,-5.012438e-06,4.078615e-07
3.460000e-11,-5.000010e-06,-5.000010e-06,5.341051e-08
3.480000e-11,-4.987387e-06,-4.987387e-06,-2.770497e-07
3.500000e-11,-4.975872e-06,-4.975872e-06,-5.386513e-07
3.520000e-11,-4.966707e-06,-4.966707e-06,-6.999508e-07
3.540000e-11,-4.960929e-06,-4.960929e-06,-7.462860e-07
3.560000e-11,-4.959237e-06,-4.959237e-06,-6.804005e-07
3.580000e-11,-4.961893e-06,-4.961893e-06,-5.205126e-07
3.600000e-11,-4.968678e-06,-4.968678e-06,-2.963828e-07
3.620000e-11,-4.978903e-06,-4.978903e-06,-4.415344e-08
3.640000e-11,-4.991481e-06,-4.991481e-06,1.992020e-07
3.660000e-11,-5.005048e-06,-5.005048e-06,4.010273e-07
3.680000e-11,-5.018104e-06,-5.018104e-06,5.370662e-07
3.700000e-11,-5.029182e-06,-5.029182e-06,5.940184e-07
3.720000e-11,-5.037009e-06,-5.037009e-06,5.703633e-07
3.740000e-11,-5.040666e-06,-5.040666e-06,4.755239e-07
3.760000e-11,-5.039711e-06,-5.039711e-06,3.276677e-07
3.780000e-11,-5.034248e-06,-5.034248e-06,1.505816e-07
3.800000e-11,-5.024923e-06,-5.024923e-06,-2.988436e-08
3.820000e-11,-5.012847e-06,-5.012847e-06,-1.893263e-07
3.840000e-11,-4.999453e-06,-4.999453e-06,-3.078206e-07
3.860000e-11,-4.986320e-06,-4.986320e-06,-3.721536e-07
3.880000e-11,-4.974983e-06,-4.974983e-06,-3.770418e-07
3.900000e-11,-4.966747e-06,-4.966747e-06,-3.252807e-07
3.920000e-11,-4.962528e-06,-4.962528e-06,-2.268947e-07
3.940000e-11,-4.962741e-06,-4.962741e-06,-9.746593e-08
3.960000e-11,-4.967252e-06,-4.967252e-06,4.411452e-08
3.980000e-11,-4.975414e-06,-4.975414e-06,1.781871e-07
4.000000e-11,-4.986160e-06,-4.986160e-06,2.868561e-07
4.020000e-11,-4.998155e-06,-4.998155e-06,3.562206e-07
4.040000e-11,-5.009965e-06,-5.009965e-06,3.780457e-07
4.060000e-11,-5.020222e-06,-5.020222e-06,3.506884e-07
4.080000e-11,-5.027781e-06,-5.027781e-06,2.791764e-07
4.100000e-11,-5.031848e-06,-5.031848e-06,1.744382e-07
4.120000e-11,-5.032069e-06,-5.032069e-06,5.178122e-08
4.140000e-11,-5.028566e-06,-5.028566e-06,-7.120175e-08
4.160000e-11,-5.021909e-06,-5.021909e-06,-1.770354e-07
4.180000e-11,-5.013026e-06,-5.013026e-06,-2.507657e-07
4.200000e-11,-5.003069e-06,-5.003069e-06,-2.820402e-07
4.220000e-11,-4.993265e-06,-4.993265e-06,-2.665716e-07
4.240000e-11,-4.984758e-06,-4.984758e-06,-2.067707e-07
4.260000e-11,-4.978476e-06,-4.978476e-06,-1.114417e-07
4.280000e-11,-4.975032e-06,-4.975032e-06,5.437937e-09
4.300000e-11,-4.974661e-06,-4.974661e-06,1.267002e-07
4.320000e-11,-4.977213e-06,-4.977213e-06,2.344642e-07
4.340000e-11,-4.982201e-06,-4.982201e-06,3.127559e-07
4.360000e-11,-4.988880e-06,-4.988880e-06,3.498832e-07
4.380000e-11,-4.996364e-06,-4.996364e-06,3.402050e-07
4.400000e-11,-5.003737e-06,-5.003737e-06,2.850168e-07
4.420000e-11,-5.010161e-06,-5.010161e-06,1.924056e-07
4.440000e-11,-5.014973e-06,-5.014973e-06,7.608132e-08
4.460000e-11,-5.017743e-06,-5.017743e-06,-4.665456e-08
4.480000e-11,-5.018311e-06,-5.018311e-06,-1.575011e-07
4.500000e-11,-5.016788e-06,-5.016788e-06,-2.399202e-07
4.520000e-11,-5.013522e-06,-5.013522e-06,-2.816430e-07
4.540000e-11,-5.009035e-06,-5.009035e-06,-2.765282e-07
4.560000e-11,-5.003945e-06,-5.003945e-06,-2.254842e-07
4.580000e-11,-4.998883e-06,-4.998883e-06,-1.363093e-07
4.600000e-11,-4.994416e-06,-4.994416e-06,-2.247656e-08
4.620000e-11,-4.990986e-06,-4.990986e-06,9.894721e-08
4.640000e-11,-4.988870e-06,-4.988870e-06,2.099212e-07
4.660000e-11,-4.988164e-06,-4.988164e-06,2.941780e-07
4.680000e-11,-4.988791e-06,-4.988791e-06,3.396685e-07
4.700000e-11,-4.990532e-06,-4.990532e-06,3.403242e-07
4.720000e-11,-4.993070e-06,-4.993070e-06,2.968717e-07
4.740000e-11,-4.996035e-06,-4.996035e-06,2.165884e-07
4.760000e-11,-4.999060e-06,-4.999060e-06,1.120580e-07
4.780000e-11,-5.001817e-06,-5.001817e-06,-8.611096e-10
4.800000e-11,-5.004052e-06,-5.004052e-06,-1.055181e-07
4.820000e-11,-5.005605e-06,-5.005605e-06,-1.870049e-07
4.840000e-11,-5.006411e-06,-5.006411e-06,-2.343447e-07
4.860000e-11,-5.006500e-06,-5.006500e-06,-2.420014e-07
4.880000e-11,-5.005971e-06,-5.005971e-06,-2.104977e-07
4.900000e-11,-5.004975e-06,-5.004975e-06,-1.460783e-07
4.920000e-11,-5.003685e-06,-5.003685e-06,-5.951167e-08
4.940000e-11,-5.002272e-06,-5.002272e-06,3.574651e-08
4.960000e-11,-5.000886e-06,-5.000886e-06,1.257106e-07
4.980000e-11,-4.999639e-06,-4.999639e-06,1.979885e-07
5.000000e-11,-4.998606e-06,-4.998606e-06,2.435393e-07
5.020000e-11,-4.997821e-06,-4.997821e-06,2.578068e-07
5.040000e-11,-4.997287e-06,-4.997287e-06,2.410886e-07
5.060000e-11,-4.996985e-06,-4.996985e-06,1.981303e-07
5.080000e-11,-4.996883e-06,-4.996883e-06,1.370623e-07
5.100000e-11,-4.996947e-06,-4.996947e-06,6.789656e-08
5.120000e-11,-4.997149e-06,-4.997149e-06,8.554215e-10
5.140000e-11,-4.997472e-06,-4.997472e-06,-5.518418e-08
5.160000e-11,-4.997903e-06,-4.997903e-06,-9.388838e-08
5.180000e-11,-4.998437e-06,-4.998437e-06,-1.121417e-07
5.200000e-11,-4.999067e-06,-4.999067e-06,-1.101371e-07
5.220000e-11,-4.999782e-06,-4.999782e-06,-9.092353e-08
5.240000e-11,-5.000558e-06,-5.000558e-06,-5.954333e-08
5.260000e-11,-5.001354e-06,-5.001354e-06,-2.195161e-08
5.280000e-11,-5.002116e-06,-5.002116e-06,1.606991e-08
5.300000e-11,-5.002778e-06,-5.002778e-06,4.981122e-08
5.320000e-11,-5.003267e-06,-5.003267e-06,7.620422e-08
5.340000e-11,-5.003516e-06,-5.003516e-06,9.399937e-08
5.360000e-11,-5.003472e-06,-5.003472e-06,1.035652e-07
5.380000e-11,-5.003106e-06,-5.003106e-06,1.063993e-07
5.400000e-11,-5.002419e-06,-5.002419e-06,1.044899e-07
5.420000e-11,-5.001451e-06,-5.001451e-06,9.968405e-08
5.440000e-11,-5.000277e-06,-5.000277e-06,9.320552e-08
5.460000e-11,-4.999001e-06,-4.999001e-06,8.542279e-08
5.480000e-11,-4.997749e-06,-4.997749e-06,7.590426e-08
5.500000e-11,-4.996656e-06,-4.996656e-06,6.373254e-08
5.520000e-11,-4.995850e-06,-4.995850e-06,4.798948e-08
5.540000e-11,-4.995434e-06,-4.995434e-06,2.828548e-08
5.560000e-11,-4.995477e-06,-4.995477e-06,5.195183e-09
5.580000e-11,-4.995998e-06,-4.995998e-06,-1.951963e-08
5.600000e-11,-4.996965e-06,-4.996965e-06,-4.297447e-08
5.620000e-11,-4.998293e-06,-4.998293e-06,-6.152745e-08
5.640000e-11,-4.999853e-06,-4.999853e-06,-7.139294e-08
5.660000e-11,-5.001483e-06,-5.001483e-06,-6.939388e-08
5.680000e-11,-5.003006e-06,-5.003006e-06,-5.370636e-08
5.700000e-11,-5.004249e-06,-5.004249e-06,-2.444118e-08
5.720000e-11,-5.005065e-06,-5.005065e-06,1.607093e-08
5.740000e-11,-5.005349e-06,-5.005349e-06,6.337496e-08
5.760000e-11,-5.005054e-06,-5.005054e-06,1.113852e-07
5.780000e-11,-5.004197e-06,-5.004197e-06,1.532197e-07
5.800000e-11,-5.002857e-06,-5.002857e-06,1.822532e-07
5.820000e-11,-5.001175e-06,-5.001175e-06,1.932157e-07
5.840000e-11,-4.999332e-06,-4.999332e-06,1.831515e-07
5.860000e-11,-4.997533e-06,-4.997533e-06,1.520617e-07
5.880000e-11,-4.995981e-06,-4.995981e-06,1.031062e-07
5.900000e-11,-4.994857e-06,-4.994857e-06,4.230523e-08
5.920000e-11,-4.994294e-06,-4.994294e-06,-2.223246e-08
5.940000e-11,-4.994365e-06,-4.994365e-06,-8.145112e-08
5.960000e-11,-4.995069e-06,-4.995069e-06,-1.266875e-07
5.980000e-11,-4.996333e-06,-4.996333e-06,-1.510008e-07
6.000000e-11,-4.998018e-06,-4.998018e-06,-1.502800e-07
6.020000e-11,-4.999936e-06,-4.999936e-06,-1.239478e-07
6.040000e-11,-5.001869e-06,-5.001869e-06,-7.513961e-08
6.060000e-11,-5.003597e-06,-5.003597e-06,-1.032052e-08
6.080000e-11,-5.004921e-06,-5.004921e-06,6.161144e-08
6.100000e-11,-5.005687e-06,-5.005687e-06,1.306034e-07
6.120000e-11,-5.005807e-06,-5.005807e-06,1.869151e-07
6.140000e-11,-5.005266e-06,-5.005266e-06,2.225518e-07
6.160000e-11,-5.004126e-06,-5.004126e-06,2.324448e-07
6.180000e-11,-5.002521e-06,-5.002521e-06,2.151980e-07
6.200000e-11,-5.000636e-06,-5.000636e-06,1.732897e-07
6.220000e-11,-4.998691e-06,-4.998691e-06,1.127001e-07
6.240000e-11,-4.996911e-06,-4.996911e-06,4.202505e-08
6.260000e-11,-4.995501e-06,-4.995501e-06,-2.878906e-08
6.280000e-11,-4.994621e-06,-4.994621e-06,-8.989385e-08
6.300000e-11,-4.994368e-06,-4.994368e-06,-1.329546e-07
6.320000e-11,-4.994763e-06,-4.994763e-06,-1.523222e-07
6.340000e-11,-4.995755e-06,-4.995755e-06,-1.457925e-07
6.360000e-11,-4.997218e-06,-4.997218e-06,-1.148491e-07
6.380000e-11,-4.998978e-06,-4.998978e-06,-6.436595e-08
6.400000e-11,-5.000825e-06,-5.000825e-06,-1.827423e-09
6.420000e-11,-5.002544e-06,-5.002544e-06,6.380837e-08
6.440000e-11,-5.003938e-06,-5.003938e-06,1.234247e-07
6.460000e-11,-5.004850e-06,-5.004850e-06,1.690432e-07
6.480000e-11,-5.005185e-06,-5.005185e-06,1.949131e-07
6.500000e-11,-5.004915e-06,-5.004915e-06,1.982423e-07
6.520000e-11,-5.004085e-06,-5.004085e-06,1.794767e-07
6.540000e-11,-5.002805e-06,-5.002805e-06,1.421059e-07
6.560000e-11,-5.001234e-06,-5.001234e-06,9.204237e-08
6.580000e-11,-4.999564e-06,-4.999564e-06,3.668319e-08
6.600000e-11,-4.997992e-06,-4.997992e-06,-1.619637e-08
6.620000e-11,-4.996697e-06,-4.996697e-06,-5.954992e-08
6.640000e-11,-4.995823e-06,-4.995823e-06,-8.800785e-08
6.660000e-11,-4.995457e-06,-4.995457e-06,-9.853782e-08
6.680000e-11,-4.995627e-06,-4.995627e-06,-9.073827e-08
6.700000e-11,-4.996295e-06,-4.996295e-06,-6.674314e-08
6.720000e-11,-4.997365e-06,-4.997365e-06,-3.077402e-08
6.740000e-11,-4.998700e-06,-4.998700e-06,1.157538e-08
6.760000e-11,-5.000134e-06,-5.000134e-06,5.420337e-08
6.780000e-11,-5.001497e-06,-5.001497e-06,9.138016e-08
6.800000e-11,-5.002634e-06,-5.002634e-06,1.185165e-07
6.820000e-11,-5.003423e-06,-5.003423e-06,1.327183e-07
6.840000e-11,-5.003785e-06,-5.003785e-06,1.330635e-07
6.860000e-11,-5.003698e-06,-5.003698e-06,1.205808e-07
6.880000e-11,-5.003190e-06,-5.003190e-06,9.795563e-08
6.900000e-11,-5.002341e-06,-5.002341e-06,6.902684e-08
6.920000e-11,-5.001263e-06,-5.001263e-06,3.816142e-08
6.940000e-11,-5.000093e-06,-5.000093e-06,9.607236e-09
6.960000e-11,-4.998970e-06,-4.998970e-06,-1.308210e-08
6.980000e-11,-4.998021e-06,-4.998021e-06,-2.747376e-08
7.000000e-11,-4.997347e-06,-4.997347e-06,-3.248559e-08
7.020000e-11,-4.997011e-06,-4.997011e-06,-2.840408e-08
7.040000e-11,-4.997033e-06,-4.997033e-06,-1.670767e-08
7.060000e-11,-4.997390e-06,-4.997390e-06,2.606949e-10
7.080000e-11,-4.998023e-06,-4.998023e-06,1.970933e-08
7.100000e-11,-4.998842e-06,-4.998842e-06,3.883300e-08
7.120000e-11,-4.999743e-06,-4.999743e-06,5.520209e-08
7.140000e-11,-5.000618e-06,-5.000618e-06,6.705398e-08
7.160000e-11,-5.001369e-06,-5.001369e-06,7.345487e-08
7.180000e-11,-5.001919e-06,-5.001919e-06,7.432281e-08
7.200000e-11,-5.002219e-06,-5.002219e-06,7.032506e-08
7.220000e-11,-5.002250e-06,-5.002250e-06,6.268026e-08
7.240000e-11,-5.002029e-06,-5.002029e-06,5.290709e-08
7.260000e-11,-5.001597e-06,-5.001597e-06,4.256426e-08
7.280000e-11,-5.001019e-06,-5.001019e-06,3.302302e-08
7.300000e-11,-5.000369e-06,-5.000369e-06,2.530272e-08
7.320000e-11,-4.999727e-06,-4.999727e-06,1.998634e-08
